Freq.	V(vout)
5.00000000000000e+002	(-2.23138738996943e+000dB,-3.97737047576067e+001°)
5.03852407068052e+002	(-2.26042476034083e+000dB,-4.00101182359856e+001°)
5.07734496216540e+002	(-2.28978387164024e+000dB,-4.02472041999999e+001°)
5.11646496140377e+002	(-2.31946720395301e+000dB,-4.04849539916383e+001°)
5.15588637296528e+002	(-2.34947724214970e+000dB,-4.07233588492076e+001°)
5.19561151917585e+002	(-2.37981647598758e+000dB,-4.09624099097796e+001°)
5.23564274025450e+002	(-2.41048740023073e+000dB,-4.12020982117188e+001°)
5.27598239445121e+002	(-2.44149251478930e+000dB,-4.14424146972898e+001°)
5.31663285818581e+002	(-2.47283432487894e+000dB,-4.16833502153430e+001°)
5.35759652618804e+002	(-2.50451534120069e+000dB,-4.19248955240787e+001°)
5.39887581163855e+002	(-2.53653808014249e+000dB,-4.21670412938885e+001°)
5.44047314631114e+002	(-2.56890506400272e+000dB,-4.24097781102723e+001°)
5.48239098071593e+002	(-2.60161882123667e+000dB,-4.26530964768314e+001°)
5.52463178424380e+002	(-2.63468188672669e+000dB,-4.28969868183348e+001°)
5.56719804531181e+002	(-2.66809680207675e+000dB,-4.31414394838591e+001°)
5.61009227150983e+002	(-2.70186611593213e+000dB,-4.33864447499998e+001°)
5.65331698974820e+002	(-2.73599238432517e+000dB,-4.36319928241532e+001°)
5.69687474640669e+002	(-2.77047817104772e+000dB,-4.38780738478674e+001°)
5.74076810748442e+002	(-2.80532604805119e+000dB,-4.41246779002607e+001°)
5.78499965875106e+002	(-2.84053859587497e+000dB,-4.43717950015065e+001°)
5.82957200589917e+002	(-2.87611840410403e+000dB,-4.46194151163825e+001°)
5.87448777469766e+002	(-2.91206807185660e+000dB,-4.48675281578837e+001°)
5.91974961114652e+002	(-2.94839020830265e+000dB,-4.51161239908957e+001°)
5.96536018163268e+002	(-2.98508743321426e+000dB,-4.53651924359287e+001°)
6.01132217308708e+002	(-3.02216237754842e+000dB,-4.56147232729087e+001°)
6.05763829314295e+002	(-3.05961768406342e+000dB,-4.58647062450257e+001°)
6.10431127029537e+002	(-3.09745600796963e+000dB,-4.61151310626354e+001°)
6.15134385406192e+002	(-3.13568001761549e+000dB,-4.63659874072140e+001°)
6.19873881514473e+002	(-3.17429239520984e+000dB,-4.66172649353632e+001°)
6.24649894559368e+002	(-3.21329583758127e+000dB,-4.68689532828641e+001°)
6.29462705897085e+002	(-3.25269305697572e+000dB,-4.71210420687777e+001°)
6.34312599051631e+002	(-3.29248678189299e+000dB,-4.73735208995900e+001°)
6.39199859731513e+002	(-3.33267975796353e+000dB,-4.76263793733999e+001°)
6.44124775846568e+002	(-3.37327474886613e+000dB,-4.78796070841476e+001°)
6.49087637524926e+002	(-3.41427453728782e+000dB,-4.81331936258824e+001°)
6.54088737130099e+002	(-3.45568192592694e+000dB,-4.83871285970657e+001°)
6.59128369278205e+002	(-3.49749973854041e+000dB,-4.86414016049103e+001°)
6.64206830855327e+002	(-3.53973082103634e+000dB,-4.88960022697505e+001°)
6.69324421034998e+002	(-3.58237804261320e+000dB,-4.91509202294448e+001°)
6.74481441295829e+002	(-3.62544429694644e+000dB,-4.94061451438047e+001°)
6.79678195439265e+002	(-3.66893250342414e+000dB,-4.96616666990525e+001°)
6.84914989607487e+002	(-3.71284560843249e+000dB,-4.99174746123021e+001°)
6.90192132301444e+002	(-3.75718658669266e+000dB,-5.01735586360625e+001°)
6.95509934399028e+002	(-3.80195844265018e+000dB,-5.04299085627634e+001°)
7.00868709173387e+002	(-3.84716421191825e+000dB,-5.06865142292982e+001°)
7.06268772311379e+002	(-3.89280696277625e+000dB,-5.09433655215849e+001°)
7.11710441932173e+002	(-3.93888979772494e+000dB,-5.12004523791423e+001°)
7.17194038605985e+002	(-3.98541585509981e+000dB,-5.14577647996798e+001°)
7.22719885372966e+002	(-4.03238831074395e+000dB,-5.17152928436991e+001°)
7.28288307762231e+002	(-4.07981037974227e+000dB,-5.19730266391068e+001°)
7.33899633811037e+002	(-4.12768531821832e+000dB,-5.22309563858356e+001°)
7.39554194084106e+002	(-4.17601642519570e+000dB,-5.24890723604729e+001°)
7.45252321693101e+002	(-4.22480704452568e+000dB,-5.27473649208970e+001°)
7.50994352316246e+002	(-4.27406056688275e+000dB,-5.30058245109167e+001°)
7.56780624218107e+002	(-4.32378043183014e+000dB,-5.32644416649161e+001°)
7.62611478269512e+002	(-4.37397012995710e+000dB,-5.35232070125022e+001°)
7.68487257967639e+002	(-4.42463320509011e+000dB,-5.37821112831542e+001°)
7.74408309456244e+002	(-4.47577325658007e+000dB,-5.40411453108750e+001°)
7.80374981546059e+002	(-4.52739394166764e+000dB,-5.43003000388428e+001°)
7.86387625735337e+002	(-4.57949897792914e+000dB,-5.45595665240638e+001°)
7.92446596230560e+002	(-4.63209214580534e+000dB,-5.48189359420241e+001°)
7.98552249967305e+002	(-4.68517729121574e+000dB,-5.50783995913423e+001°)
8.04704946631271e+002	(-4.73875832826078e+000dB,-5.53379488984219e+001°)
8.10905048679468e+002	(-4.79283924201505e+000dB,-5.55975754221032e+001°)
8.17152921361572e+002	(-4.84742409141412e+000dB,-5.58572708583163e+001°)
8.23448932741438e+002	(-4.90251701223808e+000dB,-5.61170270447353e+001°)
8.29793453718784e+002	(-4.95812222019511e+000dB,-5.63768359654337e+001°)
8.36186858051043e+002	(-5.01424401410817e+000dB,-5.66366897555435e+001°)
8.42629522375379e+002	(-5.07088677920853e+000dB,-5.68965807059173e+001°)
8.49121826230876e+002	(-5.12805499053962e+000dB,-5.71565012677972e+001°)
8.55664152080894e+002	(-5.18575321647523e+000dB,-5.74164440574897e+001°)
8.62256885335605e+002	(-5.24398612235589e+000dB,-5.76764018610510e+001°)
8.68900414374692e+002	(-5.30275847424798e+000dB,-5.79363676389826e+001°)
8.75595130570233e+002	(-5.36207514282979e+000dB,-5.81963345309417e+001°)
8.82341428309754e+002	(-5.42194110740929e+000dB,-5.84562958604681e+001°)
8.89139705019466e+002	(-5.48236146007881e+000dB,-5.87162451397311e+001°)
8.95990361187671e+002	(-5.54334141001148e+000dB,-5.89761760742997e+001°)
9.02893800388363e+002	(-5.60488628790525e+000dB,-5.92360825679405e+001°)
9.09850429304996e+002	(-5.66700155058016e+000dB,-5.94959587274467e+001°)
9.16860657754446e+002	(-5.72969278573493e+000dB,-5.97557988675031e+001°)
9.23924898711150e+002	(-5.79296571686950e+000dB,-6.00155975155926e+001°)
9.31043568331439e+002	(-5.85682620838011e+000dB,-6.02753494169488e+001°)
9.38217085978048e+002	(-5.92128027083429e+000dB,-6.05350495395615e+001°)
9.45445874244826e+002	(-5.98633406643327e+000dB,-6.07946930792400e+001°)
9.52730358981629e+002	(-6.05199391466977e+000dB,-6.10542754647434e+001°)
9.60070969319406e+002	(-6.11826629818976e+000dB,-6.13137923629826e+001°)
9.67468137695482e+002	(-6.18515786886708e+000dB,-6.15732396843043e+001°)
9.74922299879028e+002	(-6.25267545410028e+000dB,-6.18326135878642e+001°)
9.82433894996739e+002	(-6.32082606334188e+000dB,-6.20919104870987e+001°)
9.90003365558698e+002	(-6.38961689487048e+000dB,-6.23511270553065e+001°)
9.97631157484446e+002	(-6.45905534281700e+000dB,-6.26102602313478e+001°)
1.00531772012925e+003	(-6.52914900445680e+000dB,-6.28693072254759e+001°)
1.01306350631058e+003	(-6.59990568778041e+000dB,-6.31282655253108e+001°)
1.02086897233477e+003	(-6.67133341935609e+000dB,-6.33871329019690e+001°)
1.02873457802393e+003	(-6.74344045249818e+000dB,-6.36459074163633e+001°)
1.03666078674298e+003	(-6.81623527575650e+000dB,-6.39045874256878e+001°)
1.04464806542703e+003	(-6.88972662174234e+000dB,-6.41631715901038e+001°)
1.05269688460878e+003	(-6.96392347630810e+000dB,-6.44216588796442e+001°)
1.06080771844635e+003	(-7.03883508809831e+000dB,-6.46800485813540e+001°)
1.06898104475112e+003	(-7.11447097849106e+000dB,-6.49383403066880e+001°)
1.07721734501595e+003	(-7.19084095194994e+000dB,-6.51965339991857e+001°)
1.08551710444348e+003	(-7.26795510680799e+000dB,-6.54546299424461e+001°)
1.09388081197478e+003	(-7.34582384650635e+000dB,-6.57126287684274e+001°)
1.10230896031810e+003	(-7.42445789131195e+000dB,-6.59705314660971e+001°)
1.11080204597791e+003	(-7.50386829053983e+000dB,-6.62283393904602e+001°)
1.11936056928418e+003	(-7.58406643530784e+000dB,-6.64860542719958e+001°)
1.12798503442180e+003	(-7.66506407185271e+000dB,-6.67436782265345e+001°)
1.13667594946032e+003	(-7.74687331543882e+000dB,-6.70012137656107e+001°)
1.14543382638389e+003	(-7.82950666489293e+000dB,-6.72586638073262e+001°)
1.15425918112139e+003	(-7.91297701780032e+000dB,-6.75160316877672e+001°)
1.16315253357682e+003	(-7.99729768640015e+000dB,-6.77733211730149e+001°)
1.17211440765997e+003	(-8.08248241422069e+000dB,-6.80305364717983e+001°)
1.18114533131724e+003	(-8.16854539349760e+000dB,-6.82876822488373e+001°)
1.19024583656277e+003	(-8.25550128342134e+000dB,-6.85447636389305e+001°)
1.19941645950975e+003	(-8.34336522926360e+000dB,-6.88017862618461e+001°)
1.20865774040206e+003	(-8.43215288243532e+000dB,-6.90587562380770e+001°)
1.21797022364602e+003	(-8.52188042153343e+000dB,-6.93156802055300e+001°)
1.22735445784252e+003	(-8.61256457443699e+000dB,-6.95725653372191e+001°)
1.23681099581932e+003	(-8.70422264151809e+000dB,-6.98294193600450e+001°)
1.24634039466360e+003	(-8.79687252003770e+000dB,-7.00862505747450e+001°)
1.25594321575480e+003	(-8.89053272980166e+000dB,-7.03430678771056e+001°)
1.26562002479769e+003	(-8.98522244015791e+000dB,-7.05998807805405e+001°)
1.27537139185569e+003	(-9.08096149842197e+000dB,-7.08566994401415e+001°)
1.28519789138444e+003	(-9.17777045982452e+000dB,-7.11135346783229e+001°)
1.29510010226567e+003	(-9.27567061908203e+000dB,-7.13703980121876e+001°)
1.30507860784128e+003	(-9.37468404369954e+000dB,-7.16273016827572e+001°)
1.31513399594770e+003	(-9.47483360912296e+000dB,-7.18842586862186e+001°)
1.32526685895055e+003	(-9.57614303586804e+000dB,-7.21412828073562e+001°)
1.33547779377950e+003	(-9.67863692876308e+000dB,-7.23983886553519e+001°)
1.34576740196347e+003	(-9.78234081845404e+000dB,-7.26555917021547e+001°)
1.35613628966603e+003	(-9.88728120533251e+000dB,-7.29129083236378e+001°)
1.36658506772113e+003	(-9.99348560606109e+000dB,-7.31703558437849e+001°)
1.37711435166909e+003	(-1.01009826028849e+001dB,-7.34279525821703e+001°)
1.38772476179287e+003	(-1.02098018959343e+001dB,-7.36857179050203e+001°)
1.39841692315455e+003	(-1.03199743587422e+001dB,-7.39436722801772e+001°)
1.40919146563224e+003	(-1.04315320972184e+001dB,-7.42018373363162e+001°)
1.42004902395712e+003	(-1.05445085123439e+001dB,-7.44602359268015e+001°)
1.43099023775087e+003	(-1.06589383668758e+001dB,-7.47188921986095e+001°)
1.44201575156332e+003	(-1.07748578563735e+001dB,-7.49778316667905e+001°)
1.45312621491045e+003	(-1.08923046848928e+001dB,-7.52370812949924e+001°)
1.46432228231263e+003	(-1.10113181457208e+001dB,-7.54966695826234e+001°)
1.47560461333321e+003	(-1.11319392075634e+001dB,-7.57566266592972e+001°)
1.48697387261732e+003	(-1.12542106066363e+001dB,-7.60169843872736e+001°)
1.49843072993108e+003	(-1.13781769451540e+001dB,-7.62777764726882e+001°)
1.50997586020102e+003	(-1.15038847967585e+001dB,-7.65390385864568e+001°)
1.52160994355387e+003	(-1.16313828194880e+001dB,-7.68008084958397e+001°)
1.53333366535661e+003	(-1.17607218769420e+001dB,-7.70631262077715e+001°)
1.54514771625681e+003	(-1.18919551683710e+001dB,-7.73260341251895e+001°)
1.55705279222339e+003	(-1.20251383684920e+001dB,-7.75895772177482e+001°)
1.56904959458758e+003	(-1.21603297779190e+001dB,-7.78538032084723e+001°)
1.58113883008420e+003	(-1.22975904851910e+001dB,-7.81187627781012e+001°)
1.59332121089338e+003	(-1.24369845414906e+001dB,-7.83845097890967e+001°)
1.60559745468243e+003	(-1.25785791492643e+001dB,-7.86511015315406e+001°)
1.61796828464816e+003	(-1.27224448660963e+001dB,-7.89185989934435e+001°)
1.63043442955948e+003	(-1.28686558253401e+001dB,-7.91870671583195e+001°)
1.64299662380034e+003	(-1.30172899751889e+001dB,-7.94565753332721e+001°)
1.65565560741297e+003	(-1.31684293380666e+001dB,-7.97271975112822e+001°)
1.66841212614149e+003	(-1.33221602924452e+001dB,-7.99990127719088e+001°)
1.68126693147583e+003	(-1.34785738794566e+001dB,-8.02721057252147e+001°)
1.69422078069603e+003	(-1.36377661369609e+001dB,-8.05465670044313e+001°)
1.70727443691682e+003	(-1.37998384640719e+001dB,-8.08224938136916e+001°)
1.72042866913258e+003	(-1.39648980195302e+001dB,-8.10999905381193e+001°)
1.73368425226268e+003	(-1.41330581577605e+001dB,-8.13791694246834e+001°)
1.74704196719705e+003	(-1.43044389069660e+001dB,-8.16601513435446e+001°)
1.76050260084228e+003	(-1.44791674942097e+001dB,-8.19430666411830e+001°)
1.77406694616790e+003	(-1.46573789231223e+001dB,-8.22280560984332e+001°)
1.78773580225313e+003	(-1.48392166106807e+001dB,-8.25152720087471e+001°)
1.80150997433395e+003	(-1.50248330904380e+001dB,-8.28048793946105e+001°)
1.81539027385053e+003	(-1.52143907906807e+001dB,-8.30970573831554e+001°)
1.82937751849504e+003	(-1.54080628972709e+001dB,-8.33920007657535e+001°)
1.84347253225981e+003	(-1.56060343124455e+001dB,-8.36899217708784e+001°)
1.85767614548588e+003	(-1.58085027226215e+001dB,-8.39910520849705e+001°)
1.87198919491193e+003	(-1.60156797903706e+001dB,-8.42956451626496e+001°)
1.88641252372352e+003	(-1.62277924882334e+001dB,-8.46039788756764e+001°)
1.90094698160283e+003	(-1.64450845950318e+001dB,-8.49163585599349e+001°)
1.91559342477867e+003	(-1.66678183789221e+001dB,-8.52331205318412e+001°)
1.93035271607693e+003	(-1.68962764957332e+001dB,-8.55546361605899e+001°)
1.94522572497142e+003	(-1.71307641363292e+001dB,-8.58813166012850e+001°)
1.96021332763510e+003	(-1.73716114630321e+001dB,-8.62136183172834e+001°)
1.97531640699164e+003	(-1.76191763828105e+001dB,-8.65520495493143e+001°)
1.99053585276751e+003	(-1.78738477143155e+001dB,-8.68971779258685e+001°)
2.00587256154433e+003	(-1.81360488173836e+001dB,-8.72496394563027e+001°)
2.02132743681174e+003	(-1.84062417678733e+001dB,-8.76101492081628e+001°)
2.03690138902059e+003	(-1.86849321784095e+001dB,-8.79795140475958e+001°)
2.05259533563656e+003	(-1.89726747877322e+001dB,-8.83586479221076e+001°)
2.06841020119428e+003	(-1.92700799691414e+001dB,-8.87485902961641e+001°)
2.08434691735170e+003	(-1.95778213436828e+001dB,-8.91505285231180e+001°)
2.10040642294506e+003	(-1.98966447284402e+001dB,-8.95658251669156e+001°)
2.11658966404413e+003	(-2.02273787075927e+001dB,-8.99960515955542e+001°)
2.13289759400799e+003	(-2.05709471877825e+001dB,-9.04430295862108e+001°)
2.14933117354116e+003	(-2.09283843953291e+001dB,-9.09088832540266e+001°)
2.16589137075023e+003	(-2.13008528984358e+001dB,-9.13961044082605e+001°)
2.18257916120086e+003	(-2.16896654031594e+001dB,-9.19076355482951e+001°)
2.19939552797524e+003	(-2.20963112919728e+001dB,-9.24469762845738e+001°)
2.21634146173007e+003	(-2.25224891683546e+001dB,-9.30183212306119e+001°)
2.23341796075484e+003	(-2.29701470681543e+001dB,-9.36267407112110e+001°)
2.25062603103070e+003	(-2.34415325379218e+001dB,-9.42784205221679e+001°)
2.26796668628967e+003	(-2.39392555168572e+001dB,-9.49809843506327e+001°)
2.28544094807440e+003	(-2.44663679678420e+001dB,-9.57439337921087e+001°)
2.30304984579836e+003	(-2.50264655839515e+001dB,-9.65792586516677e+001°)
2.32079441680642e+003	(-2.56238187720184e+001dB,-9.75022986494499e+001°)
2.33867570643602e+003	(-2.62635426041697e+001dB,-9.85329842766671e+001°)
2.35669476807873e+003	(-2.69518185570250e+001dB,-9.96976629816602e+001°)
2.37485266324231e+003	(-2.76961842668257e+001dB,-1.01031852455692e+002°)
2.39315046161322e+003	(-2.85059096142740e+001dB,-1.02584504044839e+002°)
2.41158924111969e+003	(-2.93924728555073e+001dB,-1.04424801437950e+002°)
2.43017008799514e+003	(-3.03701226583070e+001dB,-1.06653353037571e+002°)
2.44889409684226e+003	(-3.14564102530825e+001dB,-1.09421240693242e+002°)
2.46776237069744e+003	(-3.26722445234533e+001dB,-1.12963479411405e+002°)
2.48677602109573e+003	(-3.40399713937071e+001dB,-1.17659046089042e+002°)
2.50593616813640e+003	(-3.55746721282831e+001dB,-1.24136931284974e+002°)
2.52524394054883e+003	(-3.72540294600511e+001dB,-1.33437578472263e+002°)
2.54470047575908e+003	(-3.89304633414173e+001dB,-1.47088175296361e+002°)
2.56430691995686e+003	(-4.01667238347737e+001dB,-1.66262721292695e+002°)
2.58406442816305e+003	(-4.03097011413759e+001dB,1.71138656612451e+002°)
2.60397416429777e+003	(-3.92600487266724e+001dB,1.50859545685268e+002°)
2.62403730124890e+003	(-3.76293016698979e+001dB,1.36048606926361e+002°)
2.64425502094123e+003	(-3.59306875818793e+001dB,1.25941775862120e+002°)
2.66462851440604e+003	(-3.43600135625377e+001dB,1.18954274631666e+002°)
2.68515898185130e+003	(-3.29564366786756e+001dB,1.13934829095556e+002°)
2.70584763273236e+003	(-3.17092148974244e+001dB,1.10179807007532e+002°)
2.72669568582318e+003	(-3.05964362091583e+001dB,1.07266740251860e+002°)
2.74770436928816e+003	(-2.95965907953682e+001dB,1.04935567897930e+002°)
2.76887492075449e+003	(-2.86913659967779e+001dB,1.03020429200867e+002°)
2.79020858738502e+003	(-2.78658319963744e+001dB,1.01411695398008e+002°)
2.81170662595179e+003	(-2.71079558599405e+001dB,1.00034483598507e+002°)
2.83337030291000e+003	(-2.64080299626386e+001dB,9.88361230041723e+001°)
2.85520089447268e+003	(-2.57581740869970e+001dB,9.77785960202143e+001°)
2.87719968668583e+003	(-2.51519382546278e+001dB,9.68338300487915e+001°)
2.89936797550420e+003	(-2.45839956986195e+001dB,9.59806757044889e+001°)
2.92170706686763e+003	(-2.40499077776296e+001dB,9.52029137380761e+001°)
2.94421827677799e+003	(-2.35459439354309e+001dB,9.44879076148110e+001°)
2.96690293137668e+003	(-2.30689431393655e+001dB,9.38256720676345e+001°)
2.98976236702280e+003	(-2.26162064752646e+001dB,9.32082161196042e+001°)
3.01279793037183e+003	(-2.21854132098202e+001dB,9.26290711831568e+001°)
3.03601097845499e+003	(-2.17745546314651e+001dB,9.20829464513525e+001°)
3.05940287875916e+003	(-2.13818814586351e+001dB,9.15654734320295e+001°)
3.08297500930746e+003	(-2.10058616849070e+001dB,9.10730139473965e+001°)
3.10672875874043e+003	(-2.06451465191729e+001dB,9.06025140063361e+001°)
3.13066552639781e+003	(-2.02985426561417e+001dB,9.01513912973453e+001°)
3.15478672240102e+003	(-1.99649895369541e+001dB,8.97174476399074e+001°)
3.17909376773617e+003	(-1.96435405739859e+001dB,8.92988001842984e+001°)
3.20358809433782e+003	(-1.93333475482840e+001dB,8.88938268500601e+001°)
3.22827114517333e+003	(-1.90336475641876e+001dB,8.85011226886869e+001°)
3.25314437432784e+003	(-1.87437520790237e+001dB,8.81194647072885e+001°)
3.27820924708995e+003	(-1.84630376274928e+001dB,8.77477833035102e+001°)
3.30346724003803e+003	(-1.81909379385444e+001dB,8.73851389091620e+001°)
3.32891984112724e+003	(-1.79269372030662e+001dB,8.70307027693782e+001°)
3.35456854977711e+003	(-1.76705642978903e+001dB,8.66837410291372e+001°)
3.38041487695996e+003	(-1.74213878086481e+001dB,8.63436014828991e+001°)
3.40646034528986e+003	(-1.71790117232466e+001dB,8.60097024824260e+001°)
3.43270648911233e+003	(-1.69430716909792e+001dB,8.56815236042004e+001°)
3.45915485459474e+003	(-1.67132317608644e+001dB,8.53585977597043e+001°)
3.48580699981739e+003	(-1.64891815277388e+001dB,8.50405044952519e+001°)
3.51266449486532e+003	(-1.62706336267046e+001dB,8.47268642775840e+001°)
3.53972892192075e+003	(-1.60573215263408e+001dB,8.44173336003273e+001°)
3.56700187535634e+003	(-1.58489975790958e+001dB,8.41116007771737e+001°)
3.59448496182910e+003	(-1.56454312938501e+001dB,8.38093823120865e+001°)
3.62217980037501e+003	(-1.54464078010535e+001dB,8.35104197563978e+001°)
3.65008802250445e+003	(-1.52517264853235e+001dB,8.32144769783833e+001°)
3.67821127229827e+003	(-1.50611997641169e+001dB,8.29213377836094e+001°)
3.70655120650465e+003	(-1.48746519941985e+001dB,8.26308038346632e+001°)
3.73510949463672e+003	(-1.46919184902323e+001dB,8.23426928272984e+001°)
3.76388781907090e+003	(-1.45128446420149e+001dB,8.20568368869293e+001°)
3.79288787514598e+003	(-1.43372851187162e+001dB,8.17730811550820e+001°)
3.82211137126307e+003	(-1.41651031500606e+001dB,8.14912825401075e+001°)
3.85156002898614e+003	(-1.39961698757097e+001dB,8.12113086103557e+001°)
3.88123558314353e+003	(-1.38303637552415e+001dB,8.09330366112480e+001°)
3.91113978193008e+003	(-1.36675700320901e+001dB,8.06563525904031e+001°)
3.94127438701018e+003	(-1.35076802456400e+001dB,8.03811506172392e+001°)
3.97164117362148e+003	(-1.33505917863846e+001dB,8.01073320853892e+001°)
4.00224193067953e+003	(-1.31962074896718e+001dB,7.98348050878853e+001°)
4.03307846088314e+003	(-1.30444352640948e+001dB,7.95634838564315e+001°)
4.06415258082057e+003	(-1.28951877510444e+001dB,7.92932882572493e+001°)
