Freq.	V(vout)
5.00000000000000e+002	(-2.27473416971272e+000dB,-4.04399017591237e+001°)
5.03852407068052e+002	(-2.30406865622305e+000dB,-4.06784075179147e+001°)
5.07734496216540e+002	(-2.33372190889755e+000dB,-4.09175668373685e+001°)
5.11646496140377e+002	(-2.36369624675031e+000dB,-4.11573708847337e+001°)
5.15588637296528e+002	(-2.39399399038179e+000dB,-4.13978107328607e+001°)
5.19561151917585e+002	(-2.42461746204890e+000dB,-4.16388773629322e+001°)
5.23564274025450e+002	(-2.45556898575318e+000dB,-4.18805616672743e+001°)
5.27598239445121e+002	(-2.48685088734781e+000dB,-4.21228544522468e+001°)
5.31663285818581e+002	(-2.51846549466395e+000dB,-4.23657464412123e+001°)
5.35759652618804e+002	(-2.55041513765719e+000dB,-4.26092282775826e+001°)
5.39887581163855e+002	(-2.58270214857480e+000dB,-4.28532905279429e+001°)
5.44047314631114e+002	(-2.61532886214428e+000dB,-4.30979236852502e+001°)
5.48239098071593e+002	(-2.64829761578400e+000dB,-4.33431181721073e+001°)
5.52463178424380e+002	(-2.68161074983670e+000dB,-4.35888643441101e+001°)
5.56719804531181e+002	(-2.71527060782634e+000dB,-4.38351524932659e+001°)
5.61009227150983e+002	(-2.74927953673905e+000dB,-4.40819728514842e+001°)
5.65331698974820e+002	(-2.78363988732908e+000dB,-4.43293155941353e+001°)
5.69687474640669e+002	(-2.81835401445007e+000dB,-4.45771708436778e+001°)
5.74076810748442e+002	(-2.85342427741276e+000dB,-4.48255286733524e+001°)
5.78499965875106e+002	(-2.88885304036952e+000dB,-4.50743791109403e+001°)
5.82957200589917e+002	(-2.92464267272664e+000dB,-4.53237121425855e+001°)
5.87448777469766e+002	(-2.96079554958500e+000dB,-4.55735177166787e+001°)
5.91974961114652e+002	(-2.99731405220993e+000dB,-4.58237857478005e+001°)
5.96536018163268e+002	(-3.03420056853089e+000dB,-4.60745061207248e+001°)
6.01132217308708e+002	(-3.07145749367183e+000dB,-4.63256686944766e+001°)
6.05763829314295e+002	(-3.10908723051298e+000dB,-4.65772633064463e+001°)
6.10431127029537e+002	(-3.14709219028472e+000dB,-4.68292797765567e+001°)
6.15134385406192e+002	(-3.18547479319447e+000dB,-4.70817079114803e+001°)
6.19873881514473e+002	(-3.22423746908727e+000dB,-4.73345375089077e+001°)
6.24649894559368e+002	(-3.26338265814086e+000dB,-4.75877583618619e+001°)
6.29462705897085e+002	(-3.30291281159610e+000dB,-4.78413602630593e+001°)
6.34312599051631e+002	(-3.34283039252357e+000dB,-4.80953330093142e+001°)
6.39199859731513e+002	(-3.38313787662704e+000dB,-4.83496664059852e+001°)
6.44124775846568e+002	(-3.42383775308488e+000dB,-4.86043502714613e+001°)
6.49087637524926e+002	(-3.46493252543002e+000dB,-4.88593744416873e+001°)
6.54088737130099e+002	(-3.50642471246953e+000dB,-4.91147287747242e+001°)
6.59128369278205e+002	(-3.54831684924456e+000dB,-4.93704031553449e+001°)
6.64206830855327e+002	(-3.59061148803174e+000dB,-4.96263874996627e+001°)
6.69324421034998e+002	(-3.63331119938664e+000dB,-4.98826717597902e+001°)
6.74481441295829e+002	(-3.67641857323068e+000dB,-5.01392459285277e+001°)
6.79678195439265e+002	(-3.71993621998197e+000dB,-5.03961000440795e+001°)
6.84914989607487e+002	(-3.76386677173151e+000dB,-5.06532241947952e+001°)
6.90192132301444e+002	(-3.80821288346543e+000dB,-5.09106085239359e+001°)
6.95509934399028e+002	(-3.85297723433458e+000dB,-5.11682432344631e+001°)
7.00868709173387e+002	(-3.89816252897227e+000dB,-5.14261185938486e+001°)
7.06268772311379e+002	(-3.94377149886155e+000dB,-5.16842249389041e+001°)
7.11710441932173e+002	(-3.98980690375292e+000dB,-5.19425526806303e+001°)
7.17194038605985e+002	(-4.03627153313384e+000dB,-5.22010923090819e+001°)
7.22719885372966e+002	(-4.08316820775104e+000dB,-5.24598343982501e+001°)
7.28288307762231e+002	(-4.13049978118714e+000dB,-5.27187696109593e+001°)
7.33899633811037e+002	(-4.17826914149259e+000dB,-5.29778887037783e+001°)
7.39554194084106e+002	(-4.22647921287456e+000dB,-5.32371825319454e+001°)
7.45252321693101e+002	(-4.27513295744388e+000dB,-5.34966420543054e+001°)
7.50994352316246e+002	(-4.32423337702174e+000dB,-5.37562583382590e+001°)
7.56780624218107e+002	(-4.37378351500745e+000dB,-5.40160225647245e+001°)
7.62611478269512e+002	(-4.42378645830892e+000dB,-5.42759260331097e+001°)
7.68487257967639e+002	(-4.47424533933747e+000dB,-5.45359601662967e+001°)
7.74408309456244e+002	(-4.52516333806865e+000dB,-5.47961165156363e+001°)
7.80374981546059e+002	(-4.57654368417078e+000dB,-5.50563867659555e+001°)
7.86387625735337e+002	(-4.62838965920320e+000dB,-5.53167627405757e+001°)
7.92446596230560e+002	(-4.68070459888595e+000dB,-5.55772364063447e+001°)
7.98552249967305e+002	(-4.73349189544303e+000dB,-5.58377998786803e+001°)
8.04704946631271e+002	(-4.78675500002134e+000dB,-5.60984454266300e+001°)
8.10905048679468e+002	(-4.84049742518736e+000dB,-5.63591654779448e+001°)
8.17152921361572e+002	(-4.89472274750405e+000dB,-5.66199526241707e+001°)
8.23448932741438e+002	(-4.94943461019020e+000dB,-5.68807996257584e+001°)
8.29793453718784e+002	(-5.00463672586493e+000dB,-5.71416994171937e+001°)
8.36186858051043e+002	(-5.06033287937982e+000dB,-5.74026451121506e+001°)
8.42629522375379e+002	(-5.11652693074162e+000dB,-5.76636300086699e+001°)
8.49121826230876e+002	(-5.17322281812821e+000dB,-5.79246475943649e+001°)
8.55664152080894e+002	(-5.23042456100120e+000dB,-5.81856915516594e+001°)
8.62256885335605e+002	(-5.28813626331806e+000dB,-5.84467557630591e+001°)
8.68900414374692e+002	(-5.34636211684742e+000dB,-5.87078343164618e+001°)
8.75595130570233e+002	(-5.40510640459089e+000dB,-5.89689215105096e+001°)
8.82341428309754e+002	(-5.46437350431526e+000dB,-5.92300118599878e+001°)
8.89139705019466e+002	(-5.52416789219902e+000dB,-5.94911001012758e+001°)
8.95990361187671e+002	(-5.58449414659729e+000dB,-5.97521811978542e+001°)
9.02893800388363e+002	(-5.64535695192945e+000dB,-6.00132503458750e+001°)
9.09850429304996e+002	(-5.70676110269426e+000dB,-6.02743029797998e+001°)
9.16860657754446e+002	(-5.76871150761709e+000dB,-6.05353347781144e+001°)
9.23924898711150e+002	(-5.83121319393453e+000dB,-6.07963416691245e+001°)
9.31043568331439e+002	(-5.89427131182158e+000dB,-6.10573198368422e+001°)
9.38217085978048e+002	(-5.95789113896729e+000dB,-6.13182657269707e+001°)
9.45445874244826e+002	(-6.02207808530458e+000dB,-6.15791760529959e+001°)
9.52730358981629e+002	(-6.08683769790081e+000dB,-6.18400478023942e+001°)
9.60070969319406e+002	(-6.15217566601549e+000dB,-6.21008782429678e+001°)
9.67468137695482e+002	(-6.21809782633236e+000dB,-6.23616649293157e+001°)
9.74922299879028e+002	(-6.28461016837313e+000dB,-6.26224057094555e+001°)
9.82433894996739e+002	(-6.35171884010071e+000dB,-6.28830987316042e+001°)
9.90003365558698e+002	(-6.41943015372032e+000dB,-6.31437424511351e+001°)
9.97631157484446e+002	(-6.48775059168709e+000dB,-6.34043356377218e+001°)
1.00531772012925e+003	(-6.55668681292939e+000dB,-6.36648773826856e+001°)
1.01306350631058e+003	(-6.62624565929783e+000dB,-6.39253671065621e+001°)
1.02086897233477e+003	(-6.69643416225001e+000dB,-6.41858045669044e+001°)
1.02873457802393e+003	(-6.76725954978219e+000dB,-6.44461898663397e+001°)
1.03666078674298e+003	(-6.83872925361931e+000dB,-6.47065234608998e+001°)
1.04464806542703e+003	(-6.91085091667565e+000dB,-6.49668061686466e+001°)
1.05269688460878e+003	(-6.98363240079913e+000dB,-6.52270391786131e+001°)
1.06080771844635e+003	(-7.05708179481303e+000dB,-6.54872240600841e+001°)
1.06898104475112e+003	(-7.13120742286958e+000dB,-6.57473627722426e+001°)
1.07721734501595e+003	(-7.20601785313099e+000dB,-6.60074576742076e+001°)
1.08551710444348e+003	(-7.28152190679429e+000dB,-6.62675115354917e+001°)
1.09388081197478e+003	(-7.35772866747735e+000dB,-6.65275275469103e+001°)
1.10230896031810e+003	(-7.43464749098450e+000dB,-6.67875093319743e+001°)
1.11080204597791e+003	(-7.51228801547143e+000dB,-6.70474609588012e+001°)
1.11936056928418e+003	(-7.59066017203013e+000dB,-6.73073869525820e+001°)
1.12798503442180e+003	(-7.66977419571601e+000dB,-6.75672923086450e+001°)
1.13667594946032e+003	(-7.74964063704082e+000dB,-6.78271825061572e+001°)
1.14543382638389e+003	(-7.83027037395617e+000dB,-6.80870635225118e+001°)
1.15425918112139e+003	(-7.91167462435460e+000dB,-6.83469418484489e+001°)
1.16315253357682e+003	(-7.99386495911627e+000dB,-6.86068245039639e+001°)
1.17211440765997e+003	(-8.07685331573170e+000dB,-6.88667190550584e+001°)
1.18114533131724e+003	(-8.16065201253259e+000dB,-6.91266336313976e+001°)
1.19024583656277e+003	(-8.24527376356524e+000dB,-6.93865769449361e+001°)
1.19941645950975e+003	(-8.33073169414295e+000dB,-6.96465583095846e+001°)
1.20865774040206e+003	(-8.41703935711678e+000dB,-6.99065876619942e+001°)
1.21797022364602e+003	(-8.50421074990625e+000dB,-7.01666755835370e+001°)
1.22735445784252e+003	(-8.59226033233469e+000dB,-7.04268333235738e+001°)
1.23681099581932e+003	(-8.68120304531690e+000dB,-7.06870728241031e+001°)
1.24634039466360e+003	(-8.77105433045028e+000dB,-7.09474067458929e+001°)
1.25594321575480e+003	(-8.86183015056406e+000dB,-7.12078484962073e+001°)
1.26562002479769e+003	(-8.95354701128510e+000dB,-7.14684122582474e+001°)
1.27537139185569e+003	(-9.04622198368321e+000dB,-7.17291130224353e+001°)
1.28519789138444e+003	(-9.13987272806317e+000dB,-7.19899666196830e+001°)
1.29510010226567e+003	(-9.23451751897580e+000dB,-7.22509897567976e+001°)
1.30507860784128e+003	(-9.33017527152569e+000dB,-7.25122000541868e+001°)
1.31513399594770e+003	(-9.42686556905904e+000dB,-7.27736160860470e+001°)
1.32526685895055e+003	(-9.52460869232135e+000dB,-7.30352574232257e+001°)
1.33547779377950e+003	(-9.62342565018148e+000dB,-7.32971446789719e+001°)
1.34576740196347e+003	(-9.72333821202634e+000dB,-7.35592995578058e+001°)
1.35613628966603e+003	(-9.82436894193813e+000dB,-7.38217449077578e+001°)
1.36658506772113e+003	(-9.92654123477536e+000dB,-7.40845047762534e+001°)
1.37711435166909e+003	(-1.00298793542883e+001dB,-7.43476044699426e+001°)
1.38772476179287e+003	(-1.01344084734098e+001dB,-7.46110706188019e+001°)
1.39841692315455e+003	(-1.02401547168748e+001dB,-7.48749312448685e+001°)
1.40919146563224e+003	(-1.03471452063330e+001dB,-7.51392158359993e+001°)
1.42004902395712e+003	(-1.04554081081346e+001dB,-7.54039554250860e+001°)
1.43099023775087e+003	(-1.05649726839829e+001dB,-7.56691826751996e+001°)
1.44201575156332e+003	(-1.06758693446648e+001dB,-7.59349319711864e+001°)
1.45312621491045e+003	(-1.07881297070876e+001dB,-7.62012395182856e+001°)
1.46432228231263e+003	(-1.09017866548719e+001dB,-7.64681434484023e+001°)
1.47560461333321e+003	(-1.10168744027716e+001dB,-7.67356839347305e+001°)
1.48697387261732e+003	(-1.11334285652156e+001dB,-7.70039033154964e+001°)
1.49843072993108e+003	(-1.12514862292947e+001dB,-7.72728462276710e+001°)
1.50997586020102e+003	(-1.13710860325435e+001dB,-7.75425597515957e+001°)
1.52160994355387e+003	(-1.14922682459043e+001dB,-7.78130935675631e+001°)
1.53333366535661e+003	(-1.16150748622918e+001dB,-7.80845001255146e+001°)
1.54514771625681e+003	(-1.17395496912205e+001dB,-7.83568348291423e+001°)
1.55705279222339e+003	(-1.18657384599998e+001dB,-7.86301562358310e+001°)
1.56904959458758e+003	(-1.19936889220530e+001dB,-7.89045262740421e+001°)
1.58113883008420e+003	(-1.21234509729700e+001dB,-7.91800104799251e+001°)
1.59332121089338e+003	(-1.22550767749651e+001dB,-7.94566782551570e+001°)
1.60559745468243e+003	(-1.23886208904819e+001dB,-7.97346031482496e+001°)
1.61796828464816e+003	(-1.25241404257622e+001dB,-8.00138631618359e+001°)
1.63043442955948e+003	(-1.26616951852823e+001dB,-8.02945410887631e+001°)
1.64299662380034e+003	(-1.28013478380571e+001dB,-8.05767248801688e+001°)
1.65565560741297e+003	(-1.29431640969202e+001dB,-8.08605080491297e+001°)
1.66841212614149e+003	(-1.30872129120106e+001dB,-8.11459901139349e+001°)
1.68126693147583e+003	(-1.32335666798324e+001dB,-8.14332770855699e+001°)
1.69422078069603e+003	(-1.33823014694124e+001dB,-8.17224820046177e+001°)
1.70727443691682e+003	(-1.35334972672511e+001dB,-8.20137255334887e+001°)
1.72042866913258e+003	(-1.36872382429645e+001dB,-8.23071366107154e+001°)
1.73368425226268e+003	(-1.38436130377397e+001dB,-8.26028531749983e+001°)
1.74704196719705e+003	(-1.40027150779798e+001dB,-8.29010229677929e+001°)
1.76050260084228e+003	(-1.41646429168105e+001dB,-8.32018044245172e+001°)
1.77406694616790e+003	(-1.43295006064491e+001dB,-8.35053676659573e+001°)
1.78773580225313e+003	(-1.44973981048225e+001dB,-8.38118956032096e+001°)
1.80150997433395e+003	(-1.46684517202524e+001dB,-8.41215851715571e+001°)
1.81539027385053e+003	(-1.48427845985321e+001dB,-8.44346487111097e+001°)
1.82937751849504e+003	(-1.50205272572949e+001dB,-8.47513155149006e+001°)
1.84347253225981e+003	(-1.52018181732394e+001dB,-8.50718335685267e+001°)
1.85767614548588e+003	(-1.53868044285503e+001dB,-8.53964715094499e+001°)
1.87198919491193e+003	(-1.55756424237445e+001dB,-8.57255208388820e+001°)
1.88641252372352e+003	(-1.57684986652111e+001dB,-8.60592984249158e+001°)
1.90094698160283e+003	(-1.59655506369247e+001dB,-8.63981493424617e+001°)
1.91559342477867e+003	(-1.61669877672199e+001dB,-8.67424501038453e+001°)
1.93035271607693e+003	(-1.63730125031737e+001dB,-8.70926123439593e+001°)
1.94522572497142e+003	(-1.65838415070797e+001dB,-8.74490870360411e+001°)
1.96021332763510e+003	(-1.67997069917846e+001dB,-8.78123693289950e+001°)
1.97531640699164e+003	(-1.70208582143548e+001dB,-8.81830041153419e+001°)
1.99053585276751e+003	(-1.72475631507322e+001dB,-8.85615924612271e+001°)
2.00587256154433e+003	(-1.74801103778242e+001dB,-8.89487990575034e+001°)
2.02132743681174e+003	(-1.77188111939801e+001dB,-8.93453608851660e+001°)
2.03690138902059e+003	(-1.79640020141812e+001dB,-8.97520973311445e+001°)
2.05259533563656e+003	(-1.82160470826986e+001dB,-9.01699220440591e+001°)
2.06841020119428e+003	(-1.84753415536789e+001dB,-9.05998568871470e+001°)
2.08434691735170e+003	(-1.87423149993768e+001dB,-9.10430484313196e+001°)
2.10040642294506e+003	(-1.90174354168956e+001dB,-9.15007875407699e+001°)
2.11658966404413e+003	(-1.93012138177276e+001dB,-9.19745327441351e+001°)
2.13289759400799e+003	(-1.95942095005925e+001dB,-9.24659382660269e+001°)
2.14933117354116e+003	(-1.98970361276162e+001dB,-9.29768878304764e+001°)
2.16589137075023e+003	(-2.02103687474439e+001dB,-9.35095356583960e+001°)
2.18257916120086e+003	(-2.05349519371666e+001dB,-9.40663564916863e+001°)
2.19939552797524e+003	(-2.08716092687144e+001dB,-9.46502070237053e+001°)
2.21634146173007e+003	(-2.12212543453026e+001dB,-9.52644018510734e+001°)
2.23341796075484e+003	(-2.15849036999568e+001dB,-9.59128080587223e+001°)
2.25062603103070e+003	(-2.19636919006494e+001dB,-9.65999639143697e+001°)
2.26796668628967e+003	(-2.23588892630685e+001dB,-9.73312290335996e+001°)
2.28544094807440e+003	(-2.27719226270963e+001dB,-9.81129760072742e+001°)
2.30304984579836e+003	(-2.32043996948234e+001dB,-9.89528371917565e+001°)
2.32079441680642e+003	(-2.36581374321445e+001dB,-9.98600256460845e+001°)
2.33867570643602e+003	(-2.41351949548909e+001dB,-1.00845756806383e+002°)
2.35669476807873e+003	(-2.46379110613461e+001dB,-1.01923808548511e+002°)
2.37485266324231e+003	(-2.51689459570109e+001dB,-1.03111273524461e+002°)
2.39315046161322e+003	(-2.57313253991188e+001dB,-1.04429581669205e+002°)
2.41158924111969e+003	(-2.63284827964908e+001dB,-1.05905906448369e+002°)
2.43017008799514e+003	(-2.69642894204852e+001dB,-1.07575121348478e+002°)
2.44889409684226e+003	(-2.76430522183608e+001dB,-1.09482550679410e+002°)
2.46776237069744e+003	(-2.83694376058501e+001dB,-1.11687868489546e+002°)
2.48677602109573e+003	(-2.91482377684934e+001dB,-1.14270641286550e+002°)
2.50593616813640e+003	(-2.99838132332347e+001dB,-1.17338150011652e+002°)
2.52524394054883e+003	(-3.08788839890671e+001dB,-1.21036112356871e+002°)
2.54470047575908e+003	(-3.18320396422137e+001dB,-1.25562248491765e+002°)
2.56430691995686e+003	(-3.28328388572463e+001dB,-1.31179806882556e+002°)
2.58406442816305e+003	(-3.38528168310028e+001dB,-1.38219515550908e+002°)
2.60397416429777e+003	(-3.48312759431213e+001dB,-1.47037695301506e+002°)
2.62403730124890e+003	(-3.56603888640976e+001dB,-1.57867784958847e+002°)
2.64425502094123e+003	(-3.61903400661854e+001dB,-1.70522865145532e+002°)
2.66462851440604e+003	(-3.62866600218723e+001dB,1.75875310264447e+002°)
2.68515898185130e+003	(-3.59210463987563e+001dB,1.62689905946764e+002°)
2.70584763273236e+003	(-3.51945301628296e+001dB,1.51059924416713e+002°)
2.72669568582318e+003	(-3.42610517530136e+001dB,1.41436807462564e+002°)
2.74770436928816e+003	(-3.32484511958058e+001dB,1.33715558378674e+002°)
2.76887492075449e+003	(-3.22352032559125e+001dB,1.27563329376392e+002°)
2.79020858738502e+003	(-3.12608955689310e+001dB,1.22629622082659e+002°)
2.81170662595179e+003	(-3.03419152486618e+001dB,1.18622576825180e+002°)
2.83337030291000e+003	(-2.94825616861712e+001dB,1.15319237678557e+002°)
2.85520089447268e+003	(-2.86813885842464e+001dB,1.12554510766775e+002°)
2.87719968668583e+003	(-2.79345023205409e+001dB,1.10206968297556e+002°)
2.89936797550420e+003	(-2.72371918163145e+001dB,1.08186878746026e+002°)
2.92170706686763e+003	(-2.65846980319873e+001dB,1.06427267367005e+002°)
2.94421827677799e+003	(-2.59725523474030e+001dB,1.04877529668731e+002°)
2.96690293137668e+003	(-2.53967032408015e+001dB,1.03498933122130e+002°)
2.98976236702280e+003	(-2.48535417896090e+001dB,1.02261449945869e+002°)
3.01279793037183e+003	(-2.43398812704913e+001dB,1.01141512728827e+002°)
3.03601097845499e+003	(-2.38529182587258e+001dB,1.00120408436528e+002°)
3.05940287875916e+003	(-2.33901885524867e+001dB,9.91831162153630e+001°)
3.08297500930746e+003	(-2.29495241401035e+001dB,9.83174563805733e+001°)
3.10672875874043e+003	(-2.25290138559552e+001dB,9.75134598771223e+001°)
3.13066552639781e+003	(-2.21269686019165e+001dB,9.67628956958158e+001°)
3.15478672240102e+003	(-2.17418911651957e+001dB,9.60589127448019e+001°)
3.17909376773617e+003	(-2.13724502878715e+001dB,9.53957655899842e+001°)
3.20358809433782e+003	(-2.10174585048361e+001dB,9.47686023233936e+001°)
3.22827114517333e+003	(-2.06758532440743e+001dB,9.41732989376074e+001°)
3.25314437432784e+003	(-2.03466807136306e+001dB,9.36063288612480e+001°)
3.27820924708995e+003	(-2.00290821512223e+001dB,9.30646593313617e+001°)
3.30346724003803e+003	(-1.97222820692880e+001dB,9.25456684341866e+001°)
3.32891984112724e+003	(-1.94255781827750e+001dB,9.20470781997730e+001°)
3.35456854977711e+003	(-1.91383327559967e+001dB,9.15669002670870e+001°)
3.38041487695996e+003	(-1.88599651474526e+001dB,9.11033914674069e+001°)
3.40646034528986e+003	(-1.85899453677135e+001dB,9.06550172900798e+001°)
3.43270648911233e+003	(-1.83277884959012e+001dB,9.02204216555885e+001°)
3.45915485459474e+003	(-1.80730498256700e+001dB,8.97984017683865e+001°)
3.48580699981739e+003	(-1.78253206326937e+001dB,8.93878870860599e+001°)
3.51266449486532e+003	(-1.75842244731430e+001dB,8.89879216435894e+001°)
3.53972892192075e+003	(-1.73494139371378e+001dB,8.85976491274305e+001°)
3.56700187535634e+003	(-1.71205677931768e+001dB,8.82163002152028e+001°)
3.59448496182910e+003	(-1.68973884695264e+001dB,8.78431817914096e+001°)
3.62217980037501e+003	(-1.66795998268527e+001dB,8.74776677240087e+001°)
3.65008802250445e+003	(-1.64669451832962e+001dB,8.71191909455213e+001°)
3.67821127229827e+003	(-1.62591855589676e+001dB,8.67672366291824e+001°)
3.70655120650465e+003	(-1.60560981116834e+001dB,8.64213362880909e+001°)
3.73510949463672e+003	(-1.58574747398216e+001dB,8.60810626554264e+001°)
3.76388781907090e+003	(-1.56631208315978e+001dB,8.57460252281267e+001°)
3.79288787514598e+003	(-1.54728541429502e+001dB,8.54158663761700e+001°)
3.82211137126307e+003	(-1.52865037886646e+001dB,8.50902579357153e+001°)
3.85156002898614e+003	(-1.51039093334433e+001dB,8.47688982175425e+001°)
3.88123558314353e+003	(-1.49249199713881e+001dB,8.44515093730892e+001°)
3.91113978193008e+003	(-1.47493937838721e+001dB,8.41378350693414e+001°)
3.94127438701018e+003	(-1.45771970670614e+001dB,8.38276384312636e+001°)
3.97164117362148e+003	(-1.44082037214540e+001dB,8.35207002166389e+001°)
4.00224193067953e+003	(-1.42422946967520e+001dB,8.32168171933509e+001°)
4.03307846088314e+003	(-1.40793574861998e+001dB,8.29158006934658e+001°)
4.06415258082057e+003	(-1.39192856652303e+001dB,8.26174753221125e+001°)
