Freq.	V(vout)
5.00000000000000e+002	(-2.03963588891983e+000dB,-3.89367796511941e+001°)
5.03852407068052e+002	(-2.06632609801744e+000dB,-3.91729072637264e+001°)
5.07734496216540e+002	(-2.09331378913117e+000dB,-3.94097841999509e+001°)
5.11646496140377e+002	(-2.12060122116480e+000dB,-3.96474027829862e+001°)
5.15588637296528e+002	(-2.14819065363286e+000dB,-3.98857552271656e+001°)
5.19561151917585e+002	(-2.17608434658288e+000dB,-4.01248336402020e+001°)
5.23564274025450e+002	(-2.20428456053022e+000dB,-4.03646300254417e+001°)
5.27598239445121e+002	(-2.23279355640582e+000dB,-4.06051362842036e+001°)
5.31663285818581e+002	(-2.26161359551759e+000dB,-4.08463442182065e+001°)
5.35759652618804e+002	(-2.29074693952609e+000dB,-4.10882455320813e+001°)
5.39887581163855e+002	(-2.32019585043485e+000dB,-4.13308318359709e+001°)
5.44047314631114e+002	(-2.34996259059619e+000dB,-4.15740946482146e+001°)
5.48239098071593e+002	(-2.38004942273292e+000dB,-4.18180253981188e+001°)
5.52463178424380e+002	(-2.41045860997668e+000dB,-4.20626154288121e+001°)
5.56719804531181e+002	(-2.44119241592343e+000dB,-4.23078560001843e+001°)
5.61009227150983e+002	(-2.47225310470677e+000dB,-4.25537382919099e+001°)
5.65331698974820e+002	(-2.50364294108960e+000dB,-4.28002534065535e+001°)
5.69687474640669e+002	(-2.53536419057497e+000dB,-4.30473923727579e+001°)
5.74076810748442e+002	(-2.56741911953647e+000dB,-4.32951461485134e+001°)
5.78499965875106e+002	(-2.59980999536896e+000dB,-4.35435056245070e+001°)
5.82957200589917e+002	(-2.63253908666030e+000dB,-4.37924616275517e+001°)
5.87448777469766e+002	(-2.66560866338461e+000dB,-4.40420049240936e+001°)
5.91974961114652e+002	(-2.69902099711776e+000dB,-4.42921262237965e+001°)
5.96536018163268e+002	(-2.73277836127582e+000dB,-4.45428161832026e+001°)
6.01132217308708e+002	(-2.76688303137696e+000dB,-4.47940654094684e+001°)
6.05763829314295e+002	(-2.80133728532763e+000dB,-4.50458644641738e+001°)
6.10431127029537e+002	(-2.83614340373352e+000dB,-4.52982038672043e+001°)
6.15134385406192e+002	(-2.87130367023617e+000dB,-4.55510741007041e+001°)
6.19873881514473e+002	(-2.90682037187565e+000dB,-4.58044656130986e+001°)
6.24649894559368e+002	(-2.94269579948027e+000dB,-4.60583688231858e+001°)
6.29462705897085e+002	(-2.97893224808376e+000dB,-4.63127741242944e+001°)
6.34312599051631e+002	(-3.01553201737070e+000dB,-4.65676718885077e+001°)
6.39199859731513e+002	(-3.05249741215097e+000dB,-4.68230524709507e+001°)
6.44124775846568e+002	(-3.08983074286381e+000dB,-4.70789062141409e+001°)
6.49087637524926e+002	(-3.12753432611218e+000dB,-4.73352234523987e+001°)
6.54088737130099e+002	(-3.16561048522827e+000dB,-4.75919945163186e+001°)
6.59128369278205e+002	(-3.20406155087073e+000dB,-4.78492097372971e+001°)
6.64206830855327e+002	(-3.24288986165441e+000dB,-4.81068594521177e+001°)
6.69324421034998e+002	(-3.28209776481334e+000dB,-4.83649340075905e+001°)
6.74481441295829e+002	(-3.32168761689767e+000dB,-4.86234237652448e+001°)
6.79678195439265e+002	(-3.36166178450537e+000dB,-4.88823191060735e+001°)
6.84914989607487e+002	(-3.40202264504935e+000dB,-4.91416104353284e+001°)
6.90192132301444e+002	(-3.44277258756091e+000dB,-4.94012881873630e+001°)
6.95509934399028e+002	(-3.48391401353010e+000dB,-4.96613428305232e+001°)
7.00868709173387e+002	(-3.52544933778409e+000dB,-4.99217648720844e+001°)
7.06268772311379e+002	(-3.56738098940399e+000dB,-5.01825448632318e+001°)
7.11710441932173e+002	(-3.60971141268120e+000dB,-5.04436734040850e+001°)
7.17194038605985e+002	(-3.65244306811413e+000dB,-5.07051411487635e+001°)
7.22719885372966e+002	(-3.69557843344587e+000dB,-5.09669388104935e+001°)
7.28288307762231e+002	(-3.73912000474411e+000dB,-5.12290571667539e+001°)
7.33899633811037e+002	(-3.78307029752377e+000dB,-5.14914870644604e+001°)
7.39554194084106e+002	(-3.82743184791358e+000dB,-5.17542194251878e+001°)
7.45252321693101e+002	(-3.87220721386742e+000dB,-5.20172452504276e+001°)
7.50994352316246e+002	(-3.91739897642124e+000dB,-5.22805556268824e+001°)
7.56780624218107e+002	(-3.96300974099689e+000dB,-5.25441417317945e+001°)
7.62611478269512e+002	(-4.00904213875354e+000dB,-5.28079948383093e+001°)
7.68487257967639e+002	(-4.05549882798792e+000dB,-5.30721063208725e+001°)
7.74408309456244e+002	(-4.10238249558443e+000dB,-5.33364676606608e+001°)
7.80374981546059e+002	(-4.14969585851615e+000dB,-5.36010704510457e+001°)
7.86387625735337e+002	(-4.19744166539811e+000dB,-5.38659064030913e+001°)
7.92446596230560e+002	(-4.24562269809369e+000dB,-5.41309673510850e+001°)
7.98552249967305e+002	(-4.29424177337576e+000dB,-5.43962452581015e+001°)
8.04704946631271e+002	(-4.34330174464352e+000dB,-5.46617322216021e+001°)
8.10905048679468e+002	(-4.39280550369659e+000dB,-5.49274204790674e+001°)
8.17152921361572e+002	(-4.44275598256764e+000dB,-5.51933024136663e+001°)
8.23448932741438e+002	(-4.49315615541491e+000dB,-5.54593705599618e+001°)
8.29793453718784e+002	(-4.54400904047642e+000dB,-5.57256176096536e+001°)
8.36186858051043e+002	(-4.59531770208706e+000dB,-5.59920364173615e+001°)
8.42629522375379e+002	(-4.64708525276041e+000dB,-5.62586200064482e+001°)
8.49121826230876e+002	(-4.69931485533701e+000dB,-5.65253615748865e+001°)
8.55664152080894e+002	(-4.75200972520072e+000dB,-5.67922545011707e+001°)
8.62256885335605e+002	(-4.80517313256510e+000dB,-5.70592923502767e+001°)
8.68900414374692e+002	(-4.85880840483179e+000dB,-5.73264688796717e+001°)
8.75595130570233e+002	(-4.91291892902288e+000dB,-5.75937780453779e+001°)
8.82341428309754e+002	(-4.96750815428934e+000dB,-5.78612140080941e+001°)
8.89139705019466e+002	(-5.02257959449791e+000dB,-5.81287711393768e+001°)
8.95990361187671e+002	(-5.07813683089859e+000dB,-5.83964440278873e+001°)
9.02893800388363e+002	(-5.13418351487527e+000dB,-5.86642274857085e+001°)
9.09850429304996e+002	(-5.19072337078221e+000dB,-5.89321165547351e+001°)
9.16860657754446e+002	(-5.24776019886878e+000dB,-5.92001065131446e+001°)
9.23924898711150e+002	(-5.30529787829555e+000dB,-5.94681928819534e+001°)
9.31043568331439e+002	(-5.36334037024457e+000dB,-5.97363714316647e+001°)
9.38217085978048e+002	(-5.42189172112710e+000dB,-6.00046381890148e+001°)
9.45445874244826e+002	(-5.48095606589192e+000dB,-6.02729894438249e+001°)
9.52730358981629e+002	(-5.54053763143780e+000dB,-6.05414217559665e+001°)
9.60070969319406e+002	(-5.60064074013379e+000dB,-6.08099319624481e+001°)
9.67468137695482e+002	(-5.66126981345105e+000dB,-6.10785171846326e+001°)
9.74922299879028e+002	(-5.72242937571036e+000dB,-6.13471748355947e+001°)
9.82433894996739e+002	(-5.78412405794955e+000dB,-6.16159026276283e+001°)
9.90003365558698e+002	(-5.84635860191522e+000dB,-6.18846985799146e+001°)
9.97631157484446e+002	(-5.90913786418365e+000dB,-6.21535610263633e+001°)
1.00531772012925e+003	(-5.97246682041567e+000dB,-6.24224886236381e+001°)
1.01306350631058e+003	(-6.03635056975091e+000dB,-6.26914803593805e+001°)
1.02086897233477e+003	(-6.10079433934671e+000dB,-6.29605355606456e+001°)
1.02873457802393e+003	(-6.16580348906784e+000dB,-6.32296539025642e+001°)
1.03666078674298e+003	(-6.23138351633286e+000dB,-6.34988354172487e+001°)
1.04464806542703e+003	(-6.29754006112372e+000dB,-6.37680805029581e+001°)
1.05269688460878e+003	(-6.36427891116549e+000dB,-6.40373899335407e+001°)
1.06080771844635e+003	(-6.43160600728334e+000dB,-6.43067648681741e+001°)
1.06898104475112e+003	(-6.49952744894436e+000dB,-6.45762068614217e+001°)
1.07721734501595e+003	(-6.56804949999243e+000dB,-6.48457178736295e+001°)
1.08551710444348e+003	(-6.63717859458439e+000dB,-6.51153002816835e+001°)
1.09388081197478e+003	(-6.70692134333668e+000dB,-6.53849568901550e+001°)
1.10230896031810e+003	(-6.77728453969179e+000dB,-6.56546909428580e+001°)
1.11080204597791e+003	(-6.84827516651470e+000dB,-6.59245061348480e+001°)
1.11936056928418e+003	(-6.91990040292967e+000dB,-6.61944066248904e+001°)
1.12798503442180e+003	(-6.99216763140887e+000dB,-6.64643970484318e+001°)
1.13667594946032e+003	(-7.06508444512446e+000dB,-6.67344825311065e+001°)
1.14543382638389e+003	(-7.13865865557684e+000dB,-6.70046687028150e+001°)
1.15425918112139e+003	(-7.21289830051225e+000dB,-6.72749617124121e+001°)
1.16315253357682e+003	(-7.28781165214384e+000dB,-6.75453682430461e+001°)
1.17211440765997e+003	(-7.36340722569117e+000dB,-6.78158955281925e+001°)
1.18114533131724e+003	(-7.43969378825376e+000dB,-6.80865513684279e+001°)
1.19024583656277e+003	(-7.51668036803562e+000dB,-6.83573441489956e+001°)
1.19941645950975e+003	(-7.59437626393847e+000dB,-6.86282828582137e+001°)
1.20865774040206e+003	(-7.67279105554242e+000dB,-6.88993771067848e+001°)
1.21797022364602e+003	(-7.75193461349416e+000dB,-6.91706371480658e+001°)
1.22735445784252e+003	(-7.83181711032388e+000dB,-6.94420738993651e+001°)
1.23681099581932e+003	(-7.91244903171356e+000dB,-6.97136989643341e+001°)
1.24634039466360e+003	(-7.99384118824033e+000dB,-6.99855246565303e+001°)
1.25594321575480e+003	(-8.07600472762070e+000dB,-7.02575640242299e+001°)
1.26562002479769e+003	(-8.15895114748253e+000dB,-7.05298308765763e+001°)
1.27537139185569e+003	(-8.24269230869363e+000dB,-7.08023398111573e+001°)
1.28519789138444e+003	(-8.32724044927769e+000dB,-7.10751062431080e+001°)
1.29510010226567e+003	(-8.41260819895017e+000dB,-7.13481464358481e+001°)
1.30507860784128e+003	(-8.49880859430906e+000dB,-7.16214775335656e+001°)
1.31513399594770e+003	(-8.58585509471747e+000dB,-7.18951175955713e+001°)
1.32526685895055e+003	(-8.67376159891786e+000dB,-7.21690856326559e+001°)
1.33547779377950e+003	(-8.76254246241994e+000dB,-7.24434016455935e+001°)
1.34576740196347e+003	(-8.85221251570755e+000dB,-7.27180866659437e+001°)
1.35613628966603e+003	(-8.94278708331256e+000dB,-7.29931627993207e+001°)
1.36658506772113e+003	(-9.03428200380738e+000dB,-7.32686532713073e+001°)
1.37711435166909e+003	(-9.12671365077120e+000dB,-7.35445824762095e+001°)
1.38772476179287e+003	(-9.22009895478888e+000dB,-7.38209760288602e+001°)
1.39841692315455e+003	(-9.31445542654565e+000dB,-7.40978608197011e+001°)
1.40919146563224e+003	(-9.40980118108528e+000dB,-7.43752650733888e+001°)
1.42004902395712e+003	(-9.50615496330419e+000dB,-7.46532184111924e+001°)
1.43099023775087e+003	(-9.60353617475945e+000dB,-7.49317519174737e+001°)
1.44201575156332e+003	(-9.70196490187399e+000dB,-7.52108982105645e+001°)
1.45312621491045e+003	(-9.80146194562896e+000dB,-7.54906915183861e+001°)
1.46432228231263e+003	(-9.90204885283953e+000dB,-7.57711677591829e+001°)
1.47560461333321e+003	(-1.00037479491180e+001dB,-7.60523646277783e+001°)
1.48697387261732e+003	(-1.01065823736356e+001dB,-7.63343216877960e+001°)
1.49843072993108e+003	(-1.02105761158039e+001dB,-7.66170804703334e+001°)
1.50997586020102e+003	(-1.03157540540047e+001dB,-7.69006845796142e+001°)
1.52160994355387e+003	(-1.04221419965089e+001dB,-7.71851798062013e+001°)
1.53333366535661e+003	(-1.05297667247350e+001dB,-7.74706142484052e+001°)
1.54514771625681e+003	(-1.06386560390108e+001dB,-7.77570384425802e+001°)
1.55705279222339e+003	(-1.07488388070139e+001dB,-7.80445055030758e+001°)
1.56904959458758e+003	(-1.08603450150834e+001dB,-7.83330712726773e+001°)
1.58113883008420e+003	(-1.09732058226074e+001dB,-7.86227944844606e+001°)
1.59332121089338e+003	(-1.10874536197123e+001dB,-7.89137369360741e+001°)
1.60559745468243e+003	(-1.12031220884969e+001dB,-7.92059636775671e+001°)
1.61796828464816e+003	(-1.13202462680728e+001dB,-7.94995432139986e+001°)
1.63043442955948e+003	(-1.14388626237019e+001dB,-7.97945477241901e+001°)
1.64299662380034e+003	(-1.15590091203395e+001dB,-8.00910532971323e+001°)
1.65565560741297e+003	(-1.16807253009239e+001dB,-8.03891401877137e+001°)
1.66841212614149e+003	(-1.18040523697836e+001dB,-8.06888930936283e+001°)
1.68126693147583e+003	(-1.19290332815632e+001dB,-8.09904014555165e+001°)
1.69422078069603e+003	(-1.20557128361118e+001dB,-8.12937597826305e+001°)
1.70727443691682e+003	(-1.21841377798115e+001dB,-8.15990680065714e+001°)
1.72042866913258e+003	(-1.23143569138764e+001dB,-8.19064318659411e+001°)
1.73368425226268e+003	(-1.24464212101961e+001dB,-8.22159633250822e+001°)
1.74704196719705e+003	(-1.25803839353555e+001dB,-8.25277810304568e+001°)
1.76050260084228e+003	(-1.27163007835264e+001dB,-8.28420108086418e+001°)
1.77406694616790e+003	(-1.28542300189885e+001dB,-8.31587862104021e+001°)
1.78773580225313e+003	(-1.29942326291199e+001dB,-8.34782491058580e+001°)
1.80150997433395e+003	(-1.31363724887757e+001dB,-8.38005503363908e+001°)
1.81539027385053e+003	(-1.32807165370693e+001dB,-8.41258504296534e+001°)
1.82937751849504e+003	(-1.34273349676761e+001dB,-8.44543203848769e+001°)
1.84347253225981e+003	(-1.35763014338924e+001dB,-8.47861425366100e+001°)
1.85767614548588e+003	(-1.37276932698155e+001dB,-8.51215115061191e+001°)
1.87198919491193e+003	(-1.38815917291527e+001dB,-8.54606352509271e+001°)
1.88641252372352e+003	(-1.40380822433324e+001dB,-8.58037362244220e+001°)
1.90094698160283e+003	(-1.41972547007674e+001dB,-8.61510526591370e+001°)
1.91559342477867e+003	(-1.43592037493276e+001dB,-8.65028399892517e+001°)
1.93035271607693e+003	(-1.45240291243049e+001dB,-8.68593724301188e+001°)
1.94522572497142e+003	(-1.46918360044070e+001dB,-8.72209447352573e+001°)
1.96021332763510e+003	(-1.48627353986051e+001dB,-8.75878741543250e+001°)
1.97531640699164e+003	(-1.50368445669799e+001dB,-8.79605026191877e+001°)
1.99053585276751e+003	(-1.52142874790699e+001dB,-8.83391991894269e+001°)
2.00587256154433e+003	(-1.53951953136298e+001dB,-8.87243627936112e+001°)
2.02132743681174e+003	(-1.55797070041604e+001dB,-8.91164253085304e+001°)
2.03690138902059e+003	(-1.57679698350745e+001dB,-8.95158550255514e+001°)
2.05259533563656e+003	(-1.59601400939331e+001dB,-8.99231605615184e+001°)
2.06841020119428e+003	(-1.61563837858153e+001dB,-9.03388952814595e+001°)
2.08434691735170e+003	(-1.63568774165886e+001dB,-9.07636623121221e+001°)
2.10040642294506e+003	(-1.65618088526240e+001dB,-9.11981202394460e+001°)
2.11658966404413e+003	(-1.67713782653583e+001dB,-9.16429896000332e+001°)
2.13289759400799e+003	(-1.69857991700405e+001dB,-9.20990602971105e+001°)
2.14933117354116e+003	(-1.72052995690133e+001dB,-9.25672000962353e+001°)
2.16589137075023e+003	(-1.74301232109599e+001dB,-9.30483643860626e+001°)
2.18257916120086e+003	(-1.76605309786674e+001dB,-9.35436074261600e+001°)
2.19939552797524e+003	(-1.78968024189953e+001dB,-9.40540953487317e+001°)
2.21634146173007e+003	(-1.81392374298188e+001dB,-9.45811212362495e+001°)
2.23341796075484e+003	(-1.83881581196538e+001dB,-9.51261226649736e+001°)
2.25062603103070e+003	(-1.86439108563224e+001dB,-9.56907021885312e+001°)
2.26796668628967e+003	(-1.89068685211420e+001dB,-9.62766513403352e+001°)
2.28544094807440e+003	(-1.91774329844070e+001dB,-9.68859788641704e+001°)
2.30304984579836e+003	(-1.94560378158401e+001dB,-9.75209440457862e+001°)
2.32079441680642e+003	(-1.97431512394940e+001dB,-9.81840962239183e+001°)
2.33867570643602e+003	(-2.00392793351179e+001dB,-9.88783218185740e+001°)
2.35669476807873e+003	(-2.03449694756030e+001dB,-9.96069005428581e+001°)
2.37485266324231e+003	(-2.06608139702368e+001dB,-1.00373572881673e+002°)
2.39315046161322e+003	(-2.09874538523498e+001dB,-1.01182621451489e+002°)
2.41158924111969e+003	(-2.13255827018423e+001dB,-1.02038969532137e+002°)
2.43017008799514e+003	(-2.16759503194549e+001dB,-1.02948300924620e+002°)
2.44889409684226e+003	(-2.20393659575417e+001dB,-1.03917206387948e+002°)
2.46776237069744e+003	(-2.24167006418627e+001dB,-1.04953363301758e+002°)
2.48677602109573e+003	(-2.28088878605917e+001dB,-1.06065756954696e+002°)
2.50593616813640e+003	(-2.32169215047176e+001dB,-1.07264954031872e+002°)
2.52524394054883e+003	(-2.36418493486051e+001dB,-1.08563441500886e+002°)
2.54470047575908e+003	(-2.40847594545107e+001dB,-1.09976047127171e+002°)
2.56430691995686e+003	(-2.45467555094922e+001dB,-1.11520461048259e+002°)
2.58406442816305e+003	(-2.50289150168659e+001dB,-1.13217880556593e+002°)
2.60397416429777e+003	(-2.55322211162061e+001dB,-1.15093800996343e+002°)
2.62403730124890e+003	(-2.60574541072728e+001dB,-1.17178971325754e+002°)
2.64425502094123e+003	(-2.66050218861834e+001dB,-1.19510517104322e+002°)
2.66462851440604e+003	(-2.71746988513698e+001dB,-1.22133194231387e+002°)
2.68515898185130e+003	(-2.77652302677204e+001dB,-1.25100651240365e+002°)
2.70584763273236e+003	(-2.83737452577196e+001dB,-1.28476407717301e+002°)
2.72669568582318e+003	(-2.89949131335042e+001dB,-1.32333942400142e+002°)
2.74770436928816e+003	(-2.96197926730780e+001dB,-1.36754757763554e+002°)
2.76887492075449e+003	(-3.02344016948131e+001dB,-1.41822532379188e+002°)
2.79020858738502e+003	(-3.08182430056632e+001dB,-1.47610716714025e+002°)
2.81170662595179e+003	(-3.13434324777300e+001dB,-1.54161035536944e+002°)
2.83337030291000e+003	(-3.17756275871249e+001dB,-1.61453182110695e+002°)
2.85520089447268e+003	(-3.20781963925785e+001dB,-1.69373479460809e+002°)
2.87719968668583e+003	(-3.22200596824054e+001dB,-1.77700477261282e+002°)
2.89936797550420e+003	(-3.21849145143113e+001dB,1.73872293191536e+002°)
2.92170706686763e+003	(-3.19769705007552e+001dB,1.65674183228035e+002°)
2.94421827677799e+003	(-3.16194108252543e+001dB,1.57983390504738e+002°)
2.96690293137668e+003	(-3.11466419830759e+001dB,1.50978790423505e+002°)
2.98976236702280e+003	(-3.05951345606612e+001dB,1.44733740364405e+002°)
3.01279793037183e+003	(-2.99969511801469e+001dB,1.39239876757524e+002°)
3.03601097845499e+003	(-2.93770147869186e+001dB,1.34439645155352e+002°)
3.05940287875916e+003	(-2.87530717135652e+001dB,1.30253500578368e+002°)
3.08297500930746e+003	(-2.81369153505567e+001dB,1.26597575447483e+002°)
3.10672875874043e+003	(-2.75358923855525e+001dB,1.23393129389031e+002°)
3.13066552639781e+003	(-2.69542346877334e+001dB,1.20570559964895e+002°)
3.15478672240102e+003	(-2.63940847420448e+001dB,1.18070353298828e+002°)
3.17909376773617e+003	(-2.58562294864779e+001dB,1.15842540899118e+002°)
3.20358809433782e+003	(-2.53406035816551e+001dB,1.13845557225133e+002°)
3.22827114517333e+003	(-2.48466254696685e+001dB,1.12044957754605e+002°)
3.25314437432784e+003	(-2.43734176624218e+001dB,1.10412208789026e+002°)
3.27820924708995e+003	(-2.39199489624418e+001dB,1.08923629611989e+002°)
3.30346724003803e+003	(-2.34851248566445e+001dB,1.07559504011418e+002°)
3.32891984112724e+003	(-2.30678438404348e+001dB,1.06303350146272e+002°)
3.35456854977711e+003	(-2.26670315044755e+001dB,1.05141327552841e+002°)
3.38041487695996e+003	(-2.22816602024933e+001dB,1.04061758299988e+002°)
3.40646034528986e+003	(-2.19107594431927e+001dB,1.03054741099380e+002°)
3.43270648911233e+003	(-2.15534203810582e+001dB,1.02111840205311e+002°)
3.45915485459474e+003	(-2.12087966163256e+001dB,1.01225834118729e+002°)
3.48580699981739e+003	(-2.08761027483219e+001dB,1.00390511994707e+002°)
3.51266449486532e+003	(-2.05546116222206e+001dB,9.96005080981278e+001°)
3.53972892192075e+003	(-2.02436508772067e+001dB,9.88511666523452e+001°)
3.56700187535634e+003	(-1.99425991852138e+001dB,9.81384310279207e+001°)
3.59448496182910e+003	(-1.96508824251873e+001dB,9.74587524875107e+001°)
3.62217980037501e+003	(-1.93679699429544e+001dB,9.68090147015322e+001°)
3.65008802250445e+003	(-1.90933709845811e+001dB,9.61864710327599e+001°)
3.67821127229827e+003	(-1.88266313505769e+001dB,9.55886922023677e+001°)
3.70655120650465e+003	(-1.85673302922055e+001dB,9.50135224320895e+001°)
3.73510949463672e+003	(-1.83150776546212e+001dB,9.44590425363025e+001°)
3.76388781907090e+003	(-1.80695112613636e+001dB,9.39235387367323e+001°)
3.79288787514598e+003	(-1.78302945287442e+001dB,9.34054762088715e+001°)
3.82211137126307e+003	(-1.75971142954106e+001dB,9.29034765568062e+001°)
3.85156002898614e+003	(-1.73696788509051e+001dB,9.24162985625699e+001°)
3.88123558314353e+003	(-1.71477161467028e+001dB,9.19428216756338e+001°)
3.91113978193008e+003	(-1.69309721735853e+001dB,9.14820318040435e+001°)
3.94127438701018e+003	(-1.67192094899866e+001dB,9.10330090460006e+001°)
3.97164117362148e+003	(-1.65122058869646e+001dB,9.05949170632082e+001°)
4.00224193067953e+003	(-1.63097531765573e+001dB,9.01669938480752e+001°)
4.03307846088314e+003	(-1.61116560914228e+001dB,8.97485436782643e+001°)
4.06415258082057e+003	(-1.59177312847696e+001dB,8.93389300859412e+001°)
