Freq.	V(vout)
5.00000000000000e+002	(-2.68965231250100e+000dB,-4.28177682875060e+001°)
5.03852407068052e+002	(-2.72364765505430e+000dB,-4.30590187151084e+001°)
5.07734496216540e+002	(-2.75800151353104e+000dB,-4.33007641952960e+001°)
5.11646496140377e+002	(-2.79271645462977e+000dB,-4.35429942586677e+001°)
5.15588637296528e+002	(-2.82779505341990e+000dB,-4.37856983643625e+001°)
5.19561151917585e+002	(-2.86323989378717e+000dB,-4.40288659032934e+001°)
5.23564274025450e+002	(-2.89905356890878e+000dB,-4.42724862014369e+001°)
5.27598239445121e+002	(-2.93523868175901e+000dB,-4.45165485231738e+001°)
5.31663285818581e+002	(-2.97179784564636e+000dB,-4.47610420746808e+001°)
5.35759652618804e+002	(-3.00873368478278e+000dB,-4.50059560073717e+001°)
5.39887581163855e+002	(-3.04604883488608e+000dB,-4.52512794213829e+001°)
5.44047314631114e+002	(-3.08374594381641e+000dB,-4.54970013691049e+001°)
5.48239098071593e+002	(-3.12182767224752e+000dB,-4.57431108587539e+001°)
5.52463178424380e+002	(-3.16029669437399e+000dB,-4.59895968579844e+001°)
5.56719804531181e+002	(-3.19915569865511e+000dB,-4.62364482975380e+001°)
5.61009227150983e+002	(-3.23840738859652e+000dB,-4.64836540749269e+001°)
5.65331698974820e+002	(-3.27805448357054e+000dB,-4.67312030581506e+001°)
5.69687474640669e+002	(-3.31809971967609e+000dB,-4.69790840894408e+001°)
5.74076810748442e+002	(-3.35854585063932e+000dB,-4.72272859890352e+001°)
5.78499965875106e+002	(-3.39939564875590e+000dB,-4.74757975589745e+001°)
5.82957200589917e+002	(-3.44065190587604e+000dB,-4.77246075869225e+001°)
5.87448777469766e+002	(-3.48231743443328e+000dB,-4.79737048500051e+001°)
5.91974961114652e+002	(-3.52439506851814e+000dB,-4.82230781186661e+001°)
5.96536018163268e+002	(-3.56688766499783e+000dB,-4.84727161605371e+001°)
6.01132217308708e+002	(-3.60979810468300e+000dB,-4.87226077443189e+001°)
6.05763829314295e+002	(-3.65312929354287e+000dB,-4.89727416436714e+001°)
6.10431127029537e+002	(-3.69688416396981e+000dB,-4.92231066411097e+001°)
6.15134385406192e+002	(-3.74106567609475e+000dB,-4.94736915319031e+001°)
6.19873881514473e+002	(-3.78567681915447e+000dB,-4.97244851279749e+001°)
6.24649894559368e+002	(-3.83072061291234e+000dB,-4.99754762617998e+001°)
6.29462705897085e+002	(-3.87620010913365e+000dB,-5.02266537902963e+001°)
6.34312599051631e+002	(-3.92211839311708e+000dB,-5.04780065987118e+001°)
6.39199859731513e+002	(-3.96847858528356e+000dB,-5.07295236044968e+001°)
6.44124775846568e+002	(-4.01528384282425e+000dB,-5.09811937611666e+001°)
6.49087637524926e+002	(-4.06253736140893e+000dB,-5.12330060621467e+001°)
6.54088737130099e+002	(-4.11024237695651e+000dB,-5.14849495446005e+001°)
6.59128369278205e+002	(-4.15840216746942e+000dB,-5.17370132932353e+001°)
6.64206830855327e+002	(-4.20702005493329e+000dB,-5.19891864440854e+001°)
6.69324421034998e+002	(-4.25609940728408e+000dB,-5.22414581882688e+001°)
6.74481441295829e+002	(-4.30564364044411e+000dB,-5.24938177757149e+001°)
6.79678195439265e+002	(-4.35565622042928e+000dB,-5.27462545188619e+001°)
6.84914989607487e+002	(-4.40614066552919e+000dB,-5.29987577963199e+001°)
6.90192132301444e+002	(-4.45710054856241e+000dB,-5.32513170564983e+001°)
6.95509934399028e+002	(-4.50853949920909e+000dB,-5.35039218211954e+001°)
7.00868709173387e+002	(-4.56046120642300e+000dB,-5.37565616891467e+001°)
7.06268772311379e+002	(-4.61286942092560e+000dB,-5.40092263395309e+001°)
7.11710441932173e+002	(-4.66576795778441e+000dB,-5.42619055354307e+001°)
7.17194038605985e+002	(-4.71916069907848e+000dB,-5.45145891272470e+001°)
7.22719885372966e+002	(-4.77305159665346e+000dB,-5.47672670560634e+001°)
7.28288307762231e+002	(-4.82744467496922e+000dB,-5.50199293569600e+001°)
7.33899633811037e+002	(-4.88234403404307e+000dB,-5.52725661622744e+001°)
7.39554194084106e+002	(-4.93775385249150e+000dB,-5.55251677048072e+001°)
7.45252321693101e+002	(-4.99367839067384e+000dB,-5.57777243209717e+001°)
7.50994352316246e+002	(-5.05012199394135e+000dB,-5.60302264538849e+001°)
7.56780624218107e+002	(-5.10708909599506e+000dB,-5.62826646563988e+001°)
7.62611478269512e+002	(-5.16458422235651e+000dB,-5.65350295940702e+001°)
7.68487257967639e+002	(-5.22261199395510e+000dB,-5.67873120480676e+001°)
7.74408309456244e+002	(-5.28117713083628e+000dB,-5.70395029180140e+001°)
7.80374981546059e+002	(-5.34028445599514e+000dB,-5.72915932247644e+001°)
7.86387625735337e+002	(-5.39993889933973e+000dB,-5.75435741131160e+001°)
7.92446596230560e+002	(-5.46014550178937e+000dB,-5.77954368544511e+001°)
7.98552249967305e+002	(-5.52090941951265e+000dB,-5.80471728493112e+001°)
8.04704946631271e+002	(-5.58223592831092e+000dB,-5.82987736299007e+001°)
8.10905048679468e+002	(-5.64413042815272e+000dB,-5.85502308625209e+001°)
8.17152921361572e+002	(-5.70659844786521e+000dB,-5.88015363499316e+001°)
8.23448932741438e+002	(-5.76964564998898e+000dB,-5.90526820336416e+001°)
8.29793453718784e+002	(-5.83327783580292e+000dB,-5.93036599961259e+001°)
8.36186858051043e+002	(-5.89750095052614e+000dB,-5.95544624629700e+001°)
8.42629522375379e+002	(-5.96232108870445e+000dB,-5.98050818049410e+001°)
8.49121826230876e+002	(-6.02774449978920e+000dB,-6.00555105399842e+001°)
8.55664152080894e+002	(-6.09377759391689e+000dB,-6.03057413351464e+001°)
8.62256885335605e+002	(-6.16042694789826e+000dB,-6.05557670084248e+001°)
8.68900414374692e+002	(-6.22769931142604e+000dB,-6.08055805305412e+001°)
8.75595130570233e+002	(-6.29560161351146e+000dB,-6.10551750266436e+001°)
8.82341428309754e+002	(-6.36414096915957e+000dB,-6.13045437779319e+001°)
8.89139705019466e+002	(-6.43332468629463e+000dB,-6.15536802232117e+001°)
8.95990361187671e+002	(-6.50316027294700e+000dB,-6.18025779603738e+001°)
9.02893800388363e+002	(-6.57365544471402e+000dB,-6.20512307478009e+001°)
9.09850429304996e+002	(-6.64481813250782e+000dB,-6.22996325057029e+001°)
9.16860657754446e+002	(-6.71665649060388e+000dB,-6.25477773173791e+001°)
9.23924898711150e+002	(-6.78917890500518e+000dB,-6.27956594304104e+001°)
9.31043568331439e+002	(-6.86239400213719e+000dB,-6.30432732577813e+001°)
9.38217085978048e+002	(-6.93631065789058e+000dB,-6.32906133789325e+001°)
9.45445874244826e+002	(-7.01093800702883e+000dB,-6.35376745407453e+001°)
9.52730358981629e+002	(-7.08628545297955e+000dB,-6.37844516584588e+001°)
9.60070969319406e+002	(-7.16236267802921e+000dB,-6.40309398165218e+001°)
9.67468137695482e+002	(-7.23917965394235e+000dB,-6.42771342693791e+001°)
9.74922299879028e+002	(-7.31674665302742e+000dB,-6.45230304421961e+001°)
9.82433894996739e+002	(-7.39507425967335e+000dB,-6.47686239315202e+001°)
9.90003365558698e+002	(-7.47417338238174e+000dB,-6.50139105058834e+001°)
9.97631157484446e+002	(-7.55405526632201e+000dB,-6.52588861063456e+001°)
1.00531772012925e+003	(-7.63473150643779e+000dB,-6.55035468469824e+001°)
1.01306350631058e+003	(-7.71621406113560e+000dB,-6.57478890153176e+001°)
1.02086897233477e+003	(-7.79851526658791e+000dB,-6.59919090727035e+001°)
1.02873457802393e+003	(-7.88164785168591e+000dB,-6.62356036546509e+001°)
1.03666078674298e+003	(-7.96562495367869e+000dB,-6.64789695711110e+001°)
1.04464806542703e+003	(-8.05046013453881e+000dB,-6.67220038067118e+001°)
1.05269688460878e+003	(-8.13616739809659e+000dB,-6.69647035209516e+001°)
1.06080771844635e+003	(-8.22276120798844e+000dB,-6.72070660483519e+001°)
1.06898104475112e+003	(-8.31025650646778e+000dB,-6.74490888985727e+001°)
1.07721734501595e+003	(-8.39866873413062e+000dB,-6.76907697564942e+001°)
1.08551710444348e+003	(-8.48801385061133e+000dB,-6.79321064822666e+001°)
1.09388081197478e+003	(-8.57830835630838e+000dB,-6.81730971113316e+001°)
1.10230896031810e+003	(-8.66956931520416e+000dB,-6.84137398544209e+001°)
1.11080204597791e+003	(-8.76181437884742e+000dB,-6.86540330975327e+001°)
1.11936056928418e+003	(-8.85506181157244e+000dB,-6.88939754018928e+001°)
1.12798503442180e+003	(-8.94933051703412e+000dB,-6.91335655039026e+001°)
1.13667594946032e+003	(-9.04464006614451e+000dB,-6.93728023150797e+001°)
1.14543382638389e+003	(-9.14101072650272e+000dB,-6.96116849219955e+001°)
1.15425918112139e+003	(-9.23846349341727e+000dB,-6.98502125862147e+001°)
1.16315253357682e+003	(-9.33702012262769e+000dB,-7.00883847442423e+001°)
1.17211440765997e+003	(-9.43670316484078e+000dB,-7.03262010074840e+001°)
1.18114533131724e+003	(-9.53753600220582e+000dB,-7.05636611622266e+001°)
1.19024583656277e+003	(-9.63954288686353e+000dB,-7.08007651696434e+001°)
1.19941645950975e+003	(-9.74274898171431e+000dB,-7.10375131658348e+001°)
1.20865774040206e+003	(-9.84718040356330e+000dB,-7.12739054619081e+001°)
1.21797022364602e+003	(-9.95286426881338e+000dB,-7.15099425441087e+001°)
1.22735445784252e+003	(-1.00598287418912e+001dB,-7.17456250740076e+001°)
1.23681099581932e+003	(-1.01681030866077e+001dB,-7.19809538887595e+001°)
1.24634039466360e+003	(-1.02777177206718e+001dB,-7.22159300014373e+001°)
1.25594321575480e+003	(-1.03887042735950e+001dB,-7.24505546014588e+001°)
1.26562002479769e+003	(-1.05010956482467e+001dB,-7.26848290551149e+001°)
1.27537139185569e+003	(-1.06149260863422e+001dB,-7.29187549062150e+001°)
1.28519789138444e+003	(-1.07302312381719e+001dB,-7.31523338768636e+001°)
1.29510010226567e+003	(-1.08470482369085e+001dB,-7.33855678683846e+001°)
1.30507860784128e+003	(-1.09654157778614e+001dB,-7.36184589624117e+001°)
1.31513399594770e+003	(-1.10853742030811e+001dB,-7.38510094221643e+001°)
1.32526685895055e+003	(-1.12069655917560e+001dB,-7.40832216939312e+001°)
1.33547779377950e+003	(-1.13302338568884e+001dB,-7.43150984087858e+001°)
1.34576740196347e+003	(-1.14552248487821e+001dB,-7.45466423845599e+001°)
1.35613628966603e+003	(-1.15819864659300e+001dB,-7.47778566281064e+001°)
1.36658506772113e+003	(-1.17105687739494e+001dB,-7.50087443378819e+001°)
1.37711435166909e+003	(-1.18410241332782e+001dB,-7.52393089068892e+001°)
1.38772476179287e+003	(-1.19734073364227e+001dB,-7.54695539260182e+001°)
1.39841692315455e+003	(-1.21077757556308e+001dB,-7.56994831878317e+001°)
1.40919146563224e+003	(-1.22441895019569e+001dB,-7.59291006908497e+001°)
1.42004902395712e+003	(-1.23827115967966e+001dB,-7.61584106443872e+001°)
1.43099023775087e+003	(-1.25234081570835e+001dB,-7.63874174740133e+001°)
1.44201575156332e+003	(-1.26663485954790e+001dB,-7.66161258277041e+001°)
1.45312621491045e+003	(-1.28116058370416e+001dB,-7.68445405827724e+001°)
1.46432228231263e+003	(-1.29592565540311e+001dB,-7.70726668536708e+001°)
1.47560461333321e+003	(-1.31093814207067e+001dB,-7.73005100007724e+001°)
1.48697387261732e+003	(-1.32620653901996e+001dB,-7.75280756402544e+001°)
1.49843072993108e+003	(-1.34173979957995e+001dB,-7.77553696552213e+001°)
1.50997586020102e+003	(-1.35754736792894e+001dB,-7.79823982082301e+001°)
1.52160994355387e+003	(-1.37363921492985e+001dB,-7.82091677553982e+001°)
1.53333366535661e+003	(-1.39002587730337e+001dB,-7.84356850623053e+001°)
1.54514771625681e+003	(-1.40671850051928e+001dB,-7.86619572219321e+001°)
1.55705279222339e+003	(-1.42372888583832e+001dB,-7.88879916749160e+001°)
1.56904959458758e+003	(-1.44106954199629e+001dB,-7.91137962324484e+001°)
1.58113883008420e+003	(-1.45875374209180e+001dB,-7.93393791021917e+001°)
1.59332121089338e+003	(-1.47679558631951e+001dB,-7.95647489176561e+001°)
1.60559745468243e+003	(-1.49521007128540e+001dB,-7.97899147715518e+001°)
1.61796828464816e+003	(-1.51401316675089e+001dB,-8.00148862537191e+001°)
1.63043442955948e+003	(-1.53322190078266e+001dB,-8.02396734943495e+001°)
1.64299662380034e+003	(-1.55285445443817e+001dB,-8.04642872133355e+001°)
1.65565560741297e+003	(-1.57293026729824e+001dB,-8.06887387767466e+001°)
1.66841212614149e+003	(-1.59347015537328e+001dB,-8.09130402616127e+001°)
1.68126693147583e+003	(-1.61449644316643e+001dB,-8.11372045304323e+001°)
1.69422078069603e+003	(-1.63603311198429e+001dB,-8.13612453170991e+001°)
1.70727443691682e+003	(-1.65810596695482e+001dB,-8.15851773262903e+001°)
1.72042866913258e+003	(-1.68074282565811e+001dB,-8.18090163487873e+001°)
1.73368425226268e+003	(-1.70397373181583e+001dB,-8.20327793957320e+001°)
1.74704196719705e+003	(-1.72783119814399e+001dB,-8.22564848554835e+001°)
1.76050260084228e+003	(-1.75235048327977e+001dB,-8.24801526775798e+001°)
1.77406694616790e+003	(-1.77756990868608e+001dB,-8.27038045893599e+001°)
1.78773580225313e+003	(-1.80353122266630e+001dB,-8.29274643521418e+001°)
1.80150997433395e+003	(-1.83028002015169e+001dB,-8.31511580655732e+001°)
1.81539027385053e+003	(-1.85786622884140e+001dB,-8.33749145309783e+001°)
1.82937751849504e+003	(-1.88634467469290e+001dB,-8.35987656874011e+001°)
1.84347253225981e+003	(-1.91577574283177e+001dB,-8.38227471378044e+001°)
1.85767614548588e+003	(-1.94622615387916e+001dB,-8.40468987878446e+001°)
1.87198919491193e+003	(-1.97776988076238e+001dB,-8.42712656262522e+001°)
1.88641252372352e+003	(-2.01048923766433e+001dB,-8.44958986847288e+001°)
1.90094698160283e+003	(-2.04447618141493e+001dB,-8.47208562273315e+001°)
1.91559342477867e+003	(-2.07983387708524e+001dB,-8.49462052358733e+001°)
1.93035271607693e+003	(-2.11667859488296e+001dB,-8.51720232808610e+001°)
1.94522572497142e+003	(-2.15514202621086e+001dB,-8.53984008998313e+001°)
1.96021332763510e+003	(-2.19537413519567e+001dB,-8.56254446510456e+001°)
1.97531640699164e+003	(-2.23754670147950e+001dB,-8.58532810772038e+001°)
1.99053585276751e+003	(-2.28185776565261e+001dB,-8.60820619118812e+001°)
2.00587256154433e+003	(-2.32853726818340e+001dB,-8.63119710080726e+001°)
2.02132743681174e+003	(-2.37785428827775e+001dB,-8.65432336918910e+001°)
2.03690138902059e+003	(-2.43012646033665e+001dB,-8.67761295928010e+001°)
2.05259533563656e+003	(-2.48573240467828e+001dB,-8.70110105570805e+001°)
2.06841020119428e+003	(-2.54512841002965e+001dB,-8.72483261597950e+001°)
2.08434691735170e+003	(-2.60887124182625e+001dB,-8.74886608611737e+001°)
2.10040642294506e+003	(-2.67764999094716e+001dB,-8.77327895179394e+001°)
2.11658966404413e+003	(-2.75233163574907e+001dB,-8.79817627762757e+001°)
2.13289759400799e+003	(-2.83402807587692e+001dB,-8.82370429609369e+001°)
2.14933117354116e+003	(-2.92419805518283e+001dB,-8.85007291044959e+001°)
2.16589137075023e+003	(-3.02480832105908e+001dB,-8.87759477067751e+001°)
2.18257916120086e+003	(-3.13860082829777e+001dB,-8.90675715420539e+001°)
2.19939552797524e+003	(-3.26956257835003e+001dB,-8.93836400628372e+001°)
2.21634146173007e+003	(-3.42381598783456e+001dB,-8.97384354751091e+001°)
2.23341796075484e+003	(-3.61148188602858e+001dB,-9.01600086053378e+001°)
2.25062603103070e+003	(-3.85115588611386e+001dB,-9.07120482175037e+001°)
2.26796668628967e+003	(-4.18317915146512e+001dB,-9.15768139926773e+001°)
2.28544094807440e+003	(-4.72682839151988e+001dB,-9.35706495793204e+001°)
2.30304984579836e+003	(-6.41459001299169e+001dB,-1.17672222785805e+002°)
2.32079441680642e+003	(-4.98009104024978e+001dB,9.49305326826072e+001°)
2.33867570643602e+003	(-4.30971144006348e+001dB,9.19611323148130e+001°)
2.35669476807873e+003	(-3.93549892856634e+001dB,9.09181444541733e+001°)
2.37485266324231e+003	(-3.67473753697245e+001dB,9.03039107272787e+001°)
2.39315046161322e+003	(-3.47442124654944e+001dB,8.98535870571943e+001°)
2.41158924111969e+003	(-3.31173515156455e+001dB,8.94831877532802e+001°)
2.43017008799514e+003	(-3.17475059720684e+001dB,8.91577189918431e+001°)
2.44889409684226e+003	(-3.05644137300206e+001dB,8.88600009270457e+001°)
2.46776237069744e+003	(-2.95231840950809e+001dB,8.85806105362896e+001°)
2.48677602109573e+003	(-2.85933852653558e+001dB,8.83139465738974e+001°)
2.50593616813640e+003	(-2.77534329444515e+001dB,8.80564693384437e+001°)
2.52524394054883e+003	(-2.69874618430925e+001dB,8.78058312471574e+001°)
2.54470047575908e+003	(-2.62834683140096e+001dB,8.75604131849791e+001°)
2.56430691995686e+003	(-2.56321506877166e+001dB,8.73190616317877e+001°)
2.58406442816305e+003	(-2.50261546761063e+001dB,8.70809319618695e+001°)
2.60397416429777e+003	(-2.44595650919944e+001dB,8.68453910424726e+001°)
2.62403730124890e+003	(-2.39275532882536e+001dB,8.66119545049632e+001°)
2.64425502094123e+003	(-2.34261263595049e+001dB,8.63802450956613e+001°)
2.66462851440604e+003	(-2.29519447753502e+001dB,8.61499642806060e+001°)
2.68515898185130e+003	(-2.25021871939736e+001dB,8.59208724315792e+001°)
2.70584763273236e+003	(-2.20744485267956e+001dB,8.56927747131201e+001°)
2.72669568582318e+003	(-2.16666618984552e+001dB,8.54655108445658e+001°)
2.74770436928816e+003	(-2.12770380803966e+001dB,8.52389475502888e+001°)
2.76887492075449e+003	(-2.09040179037260e+001dB,8.50129729093157e+001°)
2.79020858738502e+003	(-2.05462344503692e+001dB,8.47874920693991e+001°)
2.81170662595179e+003	(-2.02024827063070e+001dB,8.45624239561334e+001°)
2.83337030291000e+003	(-1.98716949765159e+001dB,8.43376987177473e+001°)
2.85520089447268e+003	(-1.95529207967873e+001dB,8.41132557206977e+001°)
2.87719968668583e+003	(-1.92453103901258e+001dB,8.38890419624447e+001°)
2.89936797550420e+003	(-1.89481009427102e+001dB,8.36650108035954e+001°)
2.92170706686763e+003	(-1.86606051417188e+001dB,8.34411209469588e+001°)
2.94421827677799e+003	(-1.83822015419212e+001dB,8.32173356092590e+001°)
2.96690293137668e+003	(-1.81123264217048e+001dB,8.29936218444557e+001°)
2.98976236702280e+003	(-1.78504668604585e+001dB,8.27699499873281e+001°)
3.01279793037183e+003	(-1.75961548238984e+001dB,8.25462931931691e+001°)
3.03601097845499e+003	(-1.73489620861925e+001dB,8.23226270548253e+001°)
3.05940287875916e+003	(-1.71084958507157e+001dB,8.20989292823937e+001°)
3.08297500930746e+003	(-1.68743949571703e+001dB,8.18751794339888e+001°)
3.10672875874043e+003	(-1.66463265833050e+001dB,8.16513586883789e+001°)
3.13066552639781e+003	(-1.64239833657971e+001dB,8.14274496521384e+001°)
3.15478672240102e+003	(-1.62070808779516e+001dB,8.12034361954019e+001°)
3.17909376773617e+003	(-1.59953554124292e+001dB,8.09793033114369e+001°)
3.20358809433782e+003	(-1.57885620257775e+001dB,8.07550369961440e+001°)
3.22827114517333e+003	(-1.55864728085216e+001dB,8.05306241443037e+001°)
3.25314437432784e+003	(-1.53888753502914e+001dB,8.03060524599560e+001°)
3.27820924708995e+003	(-1.51955713741762e+001dB,8.00813103787554e+001°)
3.30346724003803e+003	(-1.50063755183958e+001dB,7.98563870005112e+001°)
3.32891984112724e+003	(-1.48211142466161e+001dB,7.96312720304230e+001°)
3.35456854977711e+003	(-1.46396248709433e+001dB,7.94059557277648e+001°)
3.38041487695996e+003	(-1.44617546738929e+001dB,7.91804288609713e+001°)
3.40646034528986e+003	(-1.42873601175374e+001dB,7.89546826682444e+001°)
3.43270648911233e+003	(-1.41163061296444e+001dB,7.87287088229338e+001°)
3.45915485459474e+003	(-1.39484654579790e+001dB,7.85024994030583e+001°)
3.48580699981739e+003	(-1.37837180851030e+001dB,7.82760468644287e+001°)
3.51266449486532e+003	(-1.36219506969900e+001dB,7.80493440169121e+001°)
3.53972892192075e+003	(-1.34630561996226e+001dB,7.78223840034413e+001°)
3.56700187535634e+003	(-1.33069332784612e+001dB,7.75951602814318e+001°)
3.59448496182910e+003	(-1.31534859962969e+001dB,7.73676666063120e+001°)
3.62217980037501e+003	(-1.30026234255428e+001dB,7.71398970169154e+001°)
3.65008802250445e+003	(-1.28542593114782e+001dB,7.69118458225135e+001°)
3.67821127229827e+003	(-1.27083117633704e+001dB,7.66835075913010e+001°)
3.70655120650465e+003	(-1.25647029707449e+001dB,7.64548771401657e+001°)
3.73510949463672e+003	(-1.24233589423837e+001dB,7.62259495255988e+001°)
3.76388781907090e+003	(-1.22842092658986e+001dB,7.59967200356187e+001°)
3.79288787514598e+003	(-1.21471868859594e+001dB,7.57671841825958e+001°)
3.82211137126307e+003	(-1.20122278994653e+001dB,7.55373376968820e+001°)
3.85156002898614e+003	(-1.18792713661241e+001dB,7.53071765211567e+001°)
3.88123558314353e+003	(-1.17482591330684e+001dB,7.50766968054146e+001°)
3.91113978193008e+003	(-1.16191356722739e+001dB,7.48458949025253e+001°)
3.94127438701018e+003	(-1.14918479296732e+001dB,7.46147673643079e+001°)
3.97164117362148e+003	(-1.13663451849657e+001dB,7.43833109380639e+001°)
4.00224193067953e+003	(-1.12425789212238e+001dB,7.41515225635234e+001°)
4.03307846088314e+003	(-1.11205027034838e+001dB,7.39193993701601e+001°)
4.06415258082057e+003	(-1.10000720655834e+001dB,7.36869386748388e+001°)
