Freq.	V(vin)/I(R3)
5.00000000000000e+004	(8.20759390602713e+001dB,1.79988613638504e+002°)
5.11646496140377e+004	(8.20759330910384e+001dB,1.79988350963224e+002°)
5.23564274025450e+004	(8.20759268426468e+001dB,1.79988082350845e+002°)
5.35759652618803e+004	(8.20759203021480e+001dB,1.79987807675953e+002°)
5.48239098071593e+004	(8.20759134560031e+001dB,1.79987526811123e+002°)
5.61009227150982e+004	(8.20759062900568e+001dB,1.79987239626933e+002°)
5.74076810748441e+004	(8.20758987895109e+001dB,1.79986945991990e+002°)
5.87448777469765e+004	(8.20758909388958e+001dB,1.79986645772953e+002°)
6.01132217308706e+004	(8.20758827220415e+001dB,1.79986338834567e+002°)
6.15134385406191e+004	(8.20758741220474e+001dB,1.79986025039704e+002°)
6.29462705897084e+004	(8.20758651212509e+001dB,1.79985704249400e+002°)
6.44124775846567e+004	(8.20758557011945e+001dB,1.79985376322918e+002°)
6.59128369278203e+004	(8.20758458425923e+001dB,1.79985041117798e+002°)
6.74481441295827e+004	(8.20758355252944e+001dB,1.79984698489931e+002°)
6.90192132301442e+004	(8.20758247282511e+001dB,1.79984348293635e+002°)
7.06268772311377e+004	(8.20758134294747e+001dB,1.79983990381738e+002°)
7.22719885372963e+004	(8.20758016060006e+001dB,1.79983624605680e+002°)
7.39554194084103e+004	(8.20757892338468e+001dB,1.79983250815617e+002°)
7.56780624218104e+004	(8.20757762879724e+001dB,1.79982868860542e+002°)
7.74408309456240e+004	(8.20757627422340e+001dB,1.79982478588418e+002°)
7.92446596230556e+004	(8.20757485693415e+001dB,1.79982079846322e+002°)
8.10905048679465e+004	(8.20757337408120e+001dB,1.79981672480610e+002°)
8.29793453718780e+004	(8.20757182269220e+001dB,1.79981256337090e+002°)
8.49121826230872e+004	(8.20757019966592e+001dB,1.79980831261215e+002°)
8.68900414374687e+004	(8.20756850176719e+001dB,1.79980397098296e+002°)
8.89139705019461e+004	(8.20756672562174e+001dB,1.79979953693734e+002°)
9.09850429304991e+004	(8.20756486771091e+001dB,1.79979500893266e+002°)
9.31043568331433e+004	(8.20756292436621e+001dB,1.79979038543242e+002°)
9.52730358981623e+004	(8.20756089176377e+001dB,1.79978566490919e+002°)
9.74922299879022e+004	(8.20755876591864e+001dB,1.79978084584782e+002°)
9.97631157484439e+004	(8.20755654267900e+001dB,1.79977592674891e+002°)
1.02086897233476e+005	(8.20755421772024e+001dB,1.79977090613257e+002°)
1.04464806542702e+005	(8.20755178653896e+001dB,1.79976578254247e+002°)
1.06898104475112e+005	(8.20754924444686e+001dB,1.79976055455018e+002°)
1.09388081197478e+005	(8.20754658656456e+001dB,1.79975522075991e+002°)
1.11936056928417e+005	(8.20754380781538e+001dB,1.79974977981352e+002°)
1.14543382638389e+005	(8.20754090291904e+001dB,1.79974423039601e+002°)
1.17211440765996e+005	(8.20753786638536e+001dB,1.79973857124129e+002°)
1.19941645950974e+005	(8.20753469250798e+001dB,1.79973280113847e+002°)
1.22735445784251e+005	(8.20753137535803e+001dB,1.79972691893852e+002°)
1.25594321575479e+005	(8.20752790877795e+001dB,1.79972092356145e+002°)
1.28519789138443e+005	(8.20752428637531e+001dB,1.79971481400397e+002°)
1.31513399594769e+005	(8.20752050151681e+001dB,1.79970858934762e+002°)
1.34576740196346e+005	(8.20751654732238e+001dB,1.79970224876748e+002°)
1.37711435166908e+005	(8.20751241665956e+001dB,1.79969579154147e+002°)
1.40919146563223e+005	(8.20750810213808e+001dB,1.79968921706020e+002°)
1.44201575156330e+005	(8.20750359610474e+001dB,1.79968252483743e+002°)
1.47560461333319e+005	(8.20749889063870e+001dB,1.79967571452124e+002°)
1.50997586020101e+005	(8.20749397754717e+001dB,1.79966878590577e+002°)
1.54514771625679e+005	(8.20748884836161e+001dB,1.79966173894377e+002°)
1.58113883008419e+005	(8.20748349433451e+001dB,1.79965457375977e+002°)
1.61796828464814e+005	(8.20747790643690e+001dB,1.79964729066407e+002°)
1.65565560741295e+005	(8.20747207535650e+001dB,1.79963989016741e+002°)
1.69422078069601e+005	(8.20746599149683e+001dB,1.79963237299650e+002°)
1.73368425226266e+005	(8.20745964497729e+001dB,1.79962474011030e+002°)
1.77406694616787e+005	(8.20745302563426e+001dB,1.79961699271716e+002°)
1.81539027385050e+005	(8.20744612302352e+001dB,1.79960913229273e+002°)
1.85767614548586e+005	(8.20743892642395e+001dB,1.79960116059874e+002°)
1.90094698160280e+005	(8.20743142484277e+001dB,1.79959307970256e+002°)
1.94522572497140e+005	(8.20742360702241e+001dB,1.79958489199769e+002°)
1.99053585276748e+005	(8.20741546144928e+001dB,1.79957660022494e+002°)
2.03690138902056e+005	(8.20740697636446e+001dB,1.79956820749448e+002°)
2.08434691735167e+005	(8.20739813977665e+001dB,1.79955971730865e+002°)
2.13289759400796e+005	(8.20738893947747e+001dB,1.79955113358549e+002°)
2.18257916120083e+005	(8.20737936305940e+001dB,1.79954246068295e+002°)
2.23341796075481e+005	(8.20736939793651e+001dB,1.79953370342369e+002°)
2.28544094807437e+005	(8.20735903136826e+001dB,1.79952486712053e+002°)
2.33867570643599e+005	(8.20734825048656e+001dB,1.79951595760221e+002°)
2.39315046161319e+005	(8.20733704232633e+001dB,1.79950698123958e+002°)
2.44889409684223e+005	(8.20732539385991e+001dB,1.79949794497204e+002°)
2.50593616813636e+005	(8.20731329203536e+001dB,1.79948885633393e+002°)
2.56430691995682e+005	(8.20730072381914e+001dB,1.79947972348096e+002°)
2.62403730124886e+005	(8.20728767624320e+001dB,1.79947055521628e+002°)
2.68515898185126e+005	(8.20727413645689e+001dB,1.79946136101599e+002°)
2.74770436928812e+005	(8.20726009178382e+001dB,1.79945215105403e+002°)
2.81170662595174e+005	(8.20724552978397e+001dB,1.79944293622591e+002°)
2.87719968668578e+005	(8.20723043832108e+001dB,1.79943372817118e+002°)
2.94421827677794e+005	(8.20721480563580e+001dB,1.79942453929417e+002°)
3.01279793037178e+005	(8.20719862042442e+001dB,1.79941538278274e+002°)
3.08297500930740e+005	(8.20718187192351e+001dB,1.79940627262453e+002°)
3.15478672240096e+005	(8.20716455000046e+001dB,1.79939722362036e+002°)
3.22827114517327e+005	(8.20714664524989e+001dB,1.79938825139425e+002°)
3.30346724003797e+005	(8.20712814909601e+001dB,1.79937937239958e+002°)
3.38041487695990e+005	(8.20710905390063e+001dB,1.79937060392089e+002°)
3.45915485459467e+005	(8.20708935307676e+001dB,1.79936196407063e+002°)
3.53972892192068e+005	(8.20706904120745e+001dB,1.79935347178045e+002°)
3.62217980037494e+005	(8.20704811416943e+001dB,1.79934514678630e+002°)
3.70655120650458e+005	(8.20702656926114e+001dB,1.79933700960677e+002°)
3.79288787514591e+005	(8.20700440533436e+001dB,1.79932908151394e+002°)
3.88123558314345e+005	(8.20698162292880e+001dB,1.79932138449630e+002°)
3.97164117362140e+005	(8.20695822440863e+001dB,1.79931394121295e+002°)
4.06415258082049e+005	(8.20693421409992e+001dB,1.79930677493853e+002°)
4.15881885551334e+005	(8.20690959842772e+001dB,1.79929990949841e+002°)
4.25569019101187e+005	(8.20688438605139e+001dB,1.79929336919347e+002°)
4.35481794978039e+005	(8.20685858799661e+001dB,1.79928717871420e+002°)
4.45625469066872e+005	(8.20683221778229e+001dB,1.79928136304371e+002°)
4.56005419677954e+005	(8.20680529154050e+001dB,1.79927594734926e+002°)
4.66627150398494e+005	(8.20677782812739e+001dB,1.79927095686254e+002°)
4.77496293010717e+005	(8.20674984922281e+001dB,1.79926641674831e+002°)
4.88618610477904e+005	(8.20672137941644e+001dB,1.79926235196198e+002°)
4.99999999999999e+005	(8.20669244627792e+001dB,1.79925878709623e+002°)
5.11646496140376e+005	(8.20666308040854e+001dB,1.79925574621747e+002°)
5.23564274025448e+005	(8.20663331547208e+001dB,1.79925325269290e+002°)
5.35759652618802e+005	(8.20660318820219e+001dB,1.79925132900918e+002°)
5.48239098071591e+005	(8.20657273838411e+001dB,1.79924999658415e+002°)
5.61009227150980e+005	(8.20654200880834e+001dB,1.79924927557316e+002°)
5.74076810748440e+005	(8.20651104519435e+001dB,1.79924918467174e+002°)
5.87448777469763e+005	(8.20647989608240e+001dB,1.79924974091691e+002°)
6.01132217308705e+005	(8.20644861269221e+001dB,1.79925095948934e+002°)
6.15134385406189e+005	(8.20641724874735e+001dB,1.79925285351895e+002°)
6.29462705897082e+005	(8.20638586026486e+001dB,1.79925543389677e+002°)
6.44124775846565e+005	(8.20635450531002e+001dB,1.79925870909589e+002°)
6.59128369278201e+005	(8.20632324371694e+001dB,1.79926268500458e+002°)
6.74481441295825e+005	(8.20629213677621e+001dB,1.79926736477463e+002°)
6.90192132301440e+005	(8.20626124689140e+001dB,1.79927274868792e+002°)
7.06268772311375e+005	(8.20623063720727e+001dB,1.79927883404421e+002°)
7.22719885372961e+005	(8.20620037121266e+001dB,1.79928561507300e+002°)
7.39554194084101e+005	(8.20617051232242e+001dB,1.79929308287190e+002°)
7.56780624218101e+005	(8.20614112344275e+001dB,1.79930122537384e+002°)
7.74408309456238e+005	(8.20611226652526e+001dB,1.79931002734500e+002°)
7.92446596230554e+005	(8.20608400211542e+001dB,1.79931947041475e+002°)
8.10905048679462e+005	(8.20605638890163e+001dB,1.79932953313855e+002°)
8.29793453718777e+005	(8.20602948327098e+001dB,1.79934019109410e+002°)
8.49121826230869e+005	(8.20600333887858e+001dB,1.79935141701037e+002°)
8.68900414374684e+005	(8.20597800623658e+001dB,1.79936318092868e+002°)
8.89139705019458e+005	(8.20595353232939e+001dB,1.79937545039422e+002°)
9.09850429304988e+005	(8.20592996026105e+001dB,1.79938819067576e+002°)
9.31043568331430e+005	(8.20590732894015e+001dB,1.79940136501097e+002°)
9.52730358981620e+005	(8.20588567280721e+001dB,1.79941493487392e+002°)
9.74922299879019e+005	(8.20586502160872e+001dB,1.79942886026114e+002°)
9.97631157484436e+005	(8.20584540022091e+001dB,1.79944309999212e+002°)
1.02086897233476e+006	(8.20582682852577e+001dB,1.79945761201987e+002°)
1.04464806542702e+006	(8.20580932134052e+001dB,1.79947235374706e+002°)
1.06898104475111e+006	(8.20579288840084e+001dB,1.79948728234314e+002°)
1.09388081197477e+006	(8.20577753439730e+001dB,1.79950235505785e+002°)
1.11936056928417e+006	(8.20576325906312e+001dB,1.79951752952692e+002°)
1.14543382638388e+006	(8.20575005731088e+001dB,1.79953276406562e+002°)
1.17211440765996e+006	(8.20573791941460e+001dB,1.79954801794663e+002°)
1.19941645950974e+006	(8.20572683123322e+001dB,1.79956325165865e+002°)
1.22735445784251e+006	(8.20571677447070e+001dB,1.79957842714314e+002°)
1.25594321575478e+006	(8.20570772696759e+001dB,1.79959350800663e+002°)
1.28519789138443e+006	(8.20569966301861e+001dB,1.79960845970695e+002°)
1.31513399594769e+006	(8.20569255371062e+001dB,1.79962324971216e+002°)
1.34576740196345e+006	(8.20568636727523e+001dB,1.79963784763142e+002°)
1.37711435166908e+006	(8.20568106945056e+001dB,1.79965222531772e+002°)
1.40919146563222e+006	(8.20567662384676e+001dB,1.79966635694295e+002°)
1.44201575156330e+006	(8.20567299231015e+001dB,1.79968021904582e+002°)
1.47560461333319e+006	(8.20567013528147e+001dB,1.79969379055424e+002°)
1.50997586020100e+006	(8.20566801214385e+001dB,1.79970705278336e+002°)
1.54514771625679e+006	(8.20566658155702e+001dB,1.79971998941131e+002°)
1.58113883008418e+006	(8.20566580177447e+001dB,1.79973258643468e+002°)
1.61796828464813e+006	(8.20566563094103e+001dB,1.79974483210577e+002°)
1.65565560741295e+006	(8.20566602736878e+001dB,1.79975671685411e+002°)
1.69422078069600e+006	(8.20566694978993e+001dB,1.79976823319445e+002°)
1.73368425226265e+006	(8.20566835758543e+001dB,1.79977937562348e+002°)
1.77406694616787e+006	(8.20567021098906e+001dB,1.79979014050769e+002°)
1.81539027385050e+006	(8.20567247126675e+001dB,1.79980052596442e+002°)
1.85767614548585e+006	(8.20567510087143e+001dB,1.79981053173805e+002°)
1.90094698160280e+006	(8.20567806357409e+001dB,1.79982015907345e+002°)
1.94522572497139e+006	(8.20568132457196e+001dB,1.79982941058812e+002°)
1.99053585276748e+006	(8.20568485057488e+001dB,1.79983829014484e+002°)
2.03690138902055e+006	(8.20568860987120e+001dB,1.79984680272591e+002°)
2.08434691735167e+006	(8.20569257237473e+001dB,1.79985495431041e+002°)
2.13289759400795e+006	(8.20569670965411e+001dB,1.79986275175529e+002°)
2.18257916120082e+006	(8.20570099494643e+001dB,1.79987020268123e+002°)
2.23341796075480e+006	(8.20570540315648e+001dB,1.79987731536388e+002°)
2.28544094807436e+006	(8.20570991084335e+001dB,1.79988409863093e+002°)
2.33867570643598e+006	(8.20571449619596e+001dB,1.79989056176557e+002°)
2.39315046161318e+006	(8.20571913899894e+001dB,1.79989671441631e+002°)
2.44889409684222e+006	(8.20572382059042e+001dB,1.79990256651354e+002°)
2.50593616813635e+006	(8.20572852381294e+001dB,1.79990812819270e+002°)
2.56430691995681e+006	(8.20573323295887e+001dB,1.79991340972406e+002°)
2.62403730124885e+006	(8.20573793371145e+001dB,1.79991842144903e+002°)
2.68515898185125e+006	(8.20574261308247e+001dB,1.79992317372266e+002°)
2.74770436928811e+006	(8.20574725934763e+001dB,1.79992767686232e+002°)
2.81170662595173e+006	(8.20575186198042e+001dB,1.79993194110209e+002°)
2.87719968668577e+006	(8.20575641158518e+001dB,1.79993597655267e+002°)
2.94421827677793e+006	(8.20576089983023e+001dB,1.79993979316641e+002°)
3.01279793037177e+006	(8.20576531938132e+001dB,1.79994340070721e+002°)
3.08297500930739e+006	(8.20576966383627e+001dB,1.79994680872494e+002°)
3.15478672240095e+006	(8.20577392766089e+001dB,1.79995002653391e+002°)
3.22827114517326e+006	(8.20577810612672e+001dB,1.79995306319522e+002°)
3.30346724003796e+006	(8.20578219525083e+001dB,1.79995592750262e+002°)
3.38041487695989e+006	(8.20578619173780e+001dB,1.79995862797140e+002°)
3.45915485459466e+006	(8.20579009292423e+001dB,1.79996117283032e+002°)
3.53972892192067e+006	(8.20579389672571e+001dB,1.79996357001591e+002°)
3.62217980037493e+006	(8.20579760158652e+001dB,1.79996582716918e+002°)
3.70655120650457e+006	(8.20580120643187e+001dB,1.79996795163430e+002°)
3.79288787514590e+006	(8.20580471062300e+001dB,1.79996995045908e+002°)
3.88123558314344e+006	(8.20580811391477e+001dB,1.79997183039698e+002°)
3.97164117362138e+006	(8.20581141641605e+001dB,1.79997359791051e+002°)
4.06415258082047e+006	(8.20581461855259e+001dB,1.79997525917569e+002°)
4.15881885551333e+006	(8.20581772103249e+001dB,1.79997682008763e+002°)
4.25569019101186e+006	(8.20582072481400e+001dB,1.79997828626680e+002°)
4.35481794978038e+006	(8.20582363107581e+001dB,1.79997966306603e+002°)
4.45625469066870e+006	(8.20582644118944e+001dB,1.79998095557808e+002°)
4.56005419677952e+006	(8.20582915669391e+001dB,1.79998216864358e+002°)
4.66627150398493e+006	(8.20583177927231e+001dB,1.79998330685933e+002°)
4.77496293010715e+006	(8.20583431073050e+001dB,1.79998437458684e+002°)
4.88618610477902e+006	(8.20583675297740e+001dB,1.79998537596100e+002°)
5.00000000000000e+006	(8.20583910800719e+001dB,1.79998631489884e+002°)
