Freq.	V(vout)
1.00000000000000e+003	(-2.99999653032803e-004dB,1.79823723761862e+002°)
1.02329299228075e+003	(-3.01215513141693e-004dB,1.79819617772825e+002°)
1.04712854805090e+003	(-3.02488674651925e-004dB,1.79815416143876e+002°)
1.07151930523761e+003	(-3.03821838089360e-004dB,1.79811116647337e+002°)
1.09647819614319e+003	(-3.05217831207058e-004dB,1.79806717003645e+002°)
1.12201845430196e+003	(-3.06679615048520e-004dB,1.79802214880144e+002°)
1.14815362149688e+003	(-3.08210290199004e-004dB,1.79797607889847e+002°)
1.17489755493953e+003	(-3.09813103354155e-004dB,1.79792893590176e+002°)
1.20226443461741e+003	(-3.11491454231014e-004dB,1.79788069481659e+002°)
1.23026877081238e+003	(-3.13248902768375e-004dB,1.79783133006614e+002°)
1.25892541179417e+003	(-3.15089176648325e-004dB,1.79778081547787e+002°)
1.28824955169313e+003	(-3.17016179267214e-004dB,1.79772912426969e+002°)
1.31825673855641e+003	(-3.19033997943918e-004dB,1.79767622903574e+002°)
1.34896288259165e+003	(-3.21146912634443e-004dB,1.79762210173189e+002°)
1.38038426460288e+003	(-3.23359405009202e-004dB,1.79756671366086e+002°)
1.41253754462275e+003	(-3.25676167906447e-004dB,1.79751003545701e+002°)
1.44543977074593e+003	(-3.28102115359585e-004dB,1.79745203707080e+002°)
1.47910838816821e+003	(-3.30642392960173e-004dB,1.79739268775285e+002°)
1.51356124843621e+003	(-3.33302388823721e-004dB,1.79733195603766e+002°)
1.54881661891248e+003	(-3.36087744946177e-004dB,1.79726980972689e+002°)
1.58489319246111e+003	(-3.39004369248096e-004dB,1.79720621587239e+002°)
1.62181009735893e+003	(-3.42058448043262e-004dB,1.79714114075866e+002°)
1.65958690743756e+003	(-3.45256459197919e-004dB,1.79707454988502e+002°)
1.69824365246174e+003	(-3.48605185841762e-004dB,1.79700640794733e+002°)
1.73780082874937e+003	(-3.52111730779216e-004dB,1.79693667881930e+002°)
1.77827941003892e+003	(-3.55783531520977e-004dB,1.79686532553331e+002°)
1.81970085860998e+003	(-3.59628376092049e-004dB,1.79679231026089e+002°)
1.86208713666287e+003	(-3.63654419520840e-004dB,1.79671759429262e+002°)
1.90546071796325e+003	(-3.67870201162658e-004dB,1.79664113801766e+002°)
1.94984459975804e+003	(-3.72284662765049e-004dB,1.79656290090277e+002°)
1.99526231496888e+003	(-3.76907167474643e-004dB,1.79648284147082e+002°)
2.04173794466953e+003	(-3.81747519663041e-004dB,1.79640091727884e+002°)
2.08929613085404e+003	(-3.86815985753074e-004dB,1.79631708489556e+002°)
2.13796208950223e+003	(-3.92123315927838e-004dB,1.79623129987837e+002°)
2.18776162394955e+003	(-3.97680766997344e-004dB,1.79614351674980e+002°)
2.23872113856834e+003	(-4.03500126243496e-004dB,1.79605368897349e+002°)
2.29086765276777e+003	(-4.09593736377442e-004dB,1.79596176892946e+002°)
2.34422881531992e+003	(-4.15974521777181e-004dB,1.79586770788898e+002°)
2.39883291901949e+003	(-4.22656015840546e-004dB,1.79577145598874e+002°)
2.45470891568503e+003	(-4.29652389723658e-004dB,1.79567296220443e+002°)
2.51188643150958e+003	(-4.36978482350138e-004dB,1.79557217432378e+002°)
2.57039578276886e+003	(-4.44649831906218e-004dB,1.79546903891893e+002°)
2.63026799189538e+003	(-4.52682708763939e-004dB,1.79536350131808e+002°)
2.69153480392691e+003	(-4.61094149999373e-004dB,1.79525550557665e+002°)
2.75422870333816e+003	(-4.69901995511741e-004dB,1.79514499444763e+002°)
2.81838293126445e+003	(-4.79124925829340e-004dB,1.79503190935130e+002°)
2.88403150312660e+003	(-4.88782501739343e-004dB,1.79491619034423e+002°)
2.95120922666638e+003	(-4.98895205757012e-004dB,1.79479777608761e+002°)
3.01995172040201e+003	(-5.09484485517387e-004dB,1.79467660381477e+002°)
3.09029543251359e+003	(-5.20572799295975e-004dB,1.79455260929800e+002°)
3.16227766016838e+003	(-5.32183663599757e-004dB,1.79442572681458e+002°)
3.23593656929628e+003	(-5.44341702987817e-004dB,1.79429588911207e+002°)
3.31131121482591e+003	(-5.57072702317530e-004dB,1.79416302737270e+002°)
3.38844156139202e+003	(-5.70403661396283e-004dB,1.79402707117703e+002°)
3.46736850452531e+003	(-5.84362852196123e-004dB,1.79388794846675e+002°)
3.54813389233575e+003	(-5.98979878805185e-004dB,1.79374558550657e+002°)
3.63078054770101e+003	(-6.14285740135444e-004dB,1.79359990684527e+002°)
3.71535229097172e+003	(-6.30312895679296e-004dB,1.79345083527588e+002°)
3.80189396320561e+003	(-6.47095334284432e-004dB,1.79329829179487e+002°)
3.89045144994280e+003	(-6.64668646168204e-004dB,1.79314219556042e+002°)
3.98107170553497e+003	(-6.83070098396573e-004dB,1.79298246384980e+002°)
4.07380277804112e+003	(-7.02338713803942e-004dB,1.79281901201567e+002°)
4.16869383470335e+003	(-7.22515353729515e-004dB,1.79265175344139e+002°)
4.26579518801592e+003	(-7.43642804588025e-004dB,1.79248059949536e+002°)
4.36515832240165e+003	(-7.65765868535789e-004dB,1.79230545948427e+002°)
4.46683592150962e+003	(-7.88931458392798e-004dB,1.79212624060525e+002°)
4.57088189614874e+003	(-8.13188697077076e-004dB,1.79194284789695e+002°)
4.67735141287197e+003	(-8.38589021607011e-004dB,1.79175518418950e+002°)
4.78630092322637e+003	(-8.65186292152754e-004dB,1.79156315005333e+002°)
4.89778819368445e+003	(-8.93036906057513e-004dB,1.79136664374673e+002°)
5.01187233627271e+003	(-9.22199917360153e-004dB,1.79116556116235e+002°)
5.12861383991364e+003	(-9.52737161869334e-004dB,1.79095979577235e+002°)
5.24807460249772e+003	(-9.84713388091279e-004dB,1.79074923857236e+002°)
5.37031796370252e+003	(-1.01819639442905e-003dB,1.79053377802414e+002°)
5.49540873857624e+003	(-1.05325717266442e-003dB,1.79031329999690e+002°)
5.62341325190348e+003	(-1.08997005838734e-003dB,1.79008768770733e+002°)
5.75439937337156e+003	(-1.12841288831114e-003dB,1.78985682165827e+002°)
5.88843655355588e+003	(-1.16866716511942e-003dB,1.78962057957586e+002°)
6.02559586074357e+003	(-1.21081822996061e-003dB,1.78937883634546e+002°)
6.16595001861481e+003	(-1.25495544315261e-003dB,1.78913146394591e+002°)
6.30957344480192e+003	(-1.30117237326887e-003dB,1.78887833138242e+002°)
6.45654229034654e+003	(-1.34956699521605e-003dB,1.78861930461793e+002°)
6.60693448007595e+003	(-1.40024189752428e-003dB,1.78835424650284e+002°)
6.76082975391980e+003	(-1.45330449941832e-003dB,1.78808301670323e+002°)
6.91830970918935e+003	(-1.50886727812738e-003dB,1.78780547162740e+002°)
7.07945784384136e+003	(-1.56704800677422e-003dB,1.78752146435079e+002°)
7.24435960074989e+003	(-1.62797000349755e-003dB,1.78723084453920e+002°)
7.41310241300916e+003	(-1.69176239227556e-003dB,1.78693345837025e+002°)
7.58577575029182e+003	(-1.75856037594555e-003dB,1.78662914845311e+002°)
7.76247116628690e+003	(-1.82850552206743e-003dB,1.78631775374641e+002°)
7.94328234724280e+003	(-1.90174606218726e-003dB,1.78599910947435e+002°)
8.12830516164097e+003	(-1.97843720512736e-003dB,1.78567304704088e+002°)
8.31763771102669e+003	(-2.05874146503407e-003dB,1.78533939394198e+002°)
8.51138038202374e+003	(-2.14282900469336e-003dB,1.78499797367603e+002°)
8.70963589956079e+003	(-2.23087799503196e-003dB,1.78464860565216e+002°)
8.91250938133744e+003	(-2.32307499141163e-003dB,1.78429110509653e+002°)
9.12010839355908e+003	(-2.41961532758260e-003dB,1.78392528295661e+002°)
9.33254300796989e+003	(-2.52070352809208e-003dB,1.78355094580333e+002°)
9.54992586021434e+003	(-2.62655373994479e-003dB,1.78316789573103e+002°)
9.77237220955809e+003	(-2.73739018456823e-003dB,1.78277593025529e+002°)
9.99999999999998e+003	(-2.85344763077601e-003dB,1.78237484220848e+002°)
1.02329299228075e+004	(-2.97497189004754e-003dB,1.78196441963303e+002°)
1.04712854805090e+004	(-3.10222033478928e-003dB,1.78154444567244e+002°)
1.07151930523760e+004	(-3.23546244093405e-003dB,1.78111469845987e+002°)
1.09647819614318e+004	(-3.37498035581183e-003dB,1.78067495100434e+002°)
1.12201845430196e+004	(-3.52106949261757e-003dB,1.78022497107453e+002°)
1.14815362149688e+004	(-3.67403915256082e-003dB,1.77976452108004e+002°)
1.17489755493953e+004	(-3.83421317610269e-003dB,1.77929335795019e+002°)
1.20226443461741e+004	(-4.00193062452378e-003dB,1.77881123301013e+002°)
1.23026877081238e+004	(-4.17754649329705e-003dB,1.77831789185453e+002°)
1.25892541179416e+004	(-4.36143245866440e-003dB,1.77781307421842e+002°)
1.28824955169313e+004	(-4.55397765899346e-003dB,1.77729651384545e+002°)
1.31825673855640e+004	(-4.75558951253232e-003dB,1.77676793835342e+002°)
1.34896288259165e+004	(-4.96669457314623e-003dB,1.77622706909699e+002°)
1.38038426460288e+004	(-5.18773942584459e-003dB,1.77567362102760e+002°)
1.41253754462275e+004	(-5.41919162394537e-003dB,1.77510730255052e+002°)
1.44543977074592e+004	(-5.66154066967784e-003dB,1.77452781537907e+002°)
1.47910838816820e+004	(-5.91529904035893e-003dB,1.77393485438586e+002°)
1.51356124843620e+004	(-6.18100326204444e-003dB,1.77332810745107e+002°)
1.54881661891248e+004	(-6.45921503295830e-003dB,1.77270725530779e+002°)
1.58489319246111e+004	(-6.75052239889873e-003dB,1.77207197138428e+002°)
1.62181009735893e+004	(-7.05554098300209e-003dB,1.77142192164324e+002°)
1.65958690743756e+004	(-7.37491527228012e-003dB,1.77075676441793e+002°)
1.69824365246174e+004	(-7.70931996357551e-003dB,1.77007615024522e+002°)
1.73780082874937e+004	(-8.05946137152504e-003dB,1.76937972169558e+002°)
1.77827941003892e+004	(-8.42607890141749e-003dB,1.76866711319976e+002°)
1.81970085860998e+004	(-8.80994658974655e-003dB,1.76793795087251e+002°)
1.86208713666286e+004	(-9.21187471559880e-003dB,1.76719185233297e+002°)
1.90546071796324e+004	(-9.63271148597845e-003dB,1.76642842652195e+002°)
1.94984459975804e+004	(-1.00733447983665e-002dB,1.76564727351603e+002°)
1.99526231496887e+004	(-1.05347040839971e-002dB,1.76484798433843e+002°)
2.04173794466952e+004	(-1.10177622353483e-002dB,1.76403014076677e+002°)
2.08929613085403e+004	(-1.15235376216199e-002dB,1.76319331513759e+002°)
2.13796208950222e+004	(-1.20530961960717e-002dB,1.76233707014780e+002°)
2.18776162394954e+004	(-1.26075536992165e-002dB,1.76146095865291e+002°)
2.23872113856833e+004	(-1.31880779621049e-002dB,1.76056452346229e+002°)
2.29086765276777e+004	(-1.37958913140250e-002dB,1.75964729713127e+002°)
2.34422881531991e+004	(-1.44322730991455e-002dB,1.75870880175033e+002°)
2.39883291901948e+004	(-1.50985623068322e-002dB,1.75774854873124e+002°)
2.45470891568502e+004	(-1.57961603204973e-002dB,1.75676603859044e+002°)
2.51188643150957e+004	(-1.65265337900916e-002dB,1.75576076072955e+002°)
2.57039578276885e+004	(-1.72912176334458e-002dB,1.75473219321320e+002°)
2.63026799189537e+004	(-1.80918181719782e-002dB,1.75367980254424e+002°)
2.69153480392691e+004	(-1.89300164063546e-002dB,1.75260304343647e+002°)
2.75422870333816e+004	(-1.98075714380790e-002dB,1.75150135858507e+002°)
2.81838293126444e+004	(-2.07263240429301e-002dB,1.75037417843471e+002°)
2.88403150312660e+004	(-2.16882004026342e-002dB,1.74922092094572e+002°)
2.95120922666637e+004	(-2.26952160012630e-002dB,1.74804099135837e+002°)
3.01995172040200e+004	(-2.37494796929644e-002dB,1.74683378195545e+002°)
3.09029543251358e+004	(-2.48531979480791e-002dB,1.74559867182347e+002°)
3.16227766016837e+004	(-2.60086792847079e-002dB,1.74433502661267e+002°)
3.23593656929627e+004	(-2.72183388931073e-002dB,1.74304219829602e+002°)
3.31131121482590e+004	(-2.84847034605295e-002dB,1.74171952492775e+002°)
3.38844156139201e+004	(-2.98104162042421e-002dB,1.74036633040141e+002°)
3.46736850452530e+004	(-3.11982421208727e-002dB,1.73898192420806e+002°)
3.54813389233574e+004	(-3.26510734601134e-002dB,1.73756560119493e+002°)
3.63078054770100e+004	(-3.41719354314552e-002dB,1.73611664132482e+002°)
3.71535229097171e+004	(-3.57639921523730e-002dB,1.73463430943687e+002°)
3.80189396320560e+004	(-3.74305528469627e-002dB,1.73311785500907e+002°)
3.89045144994279e+004	(-3.91750783040091e-002dB,1.73156651192313e+002°)
3.98107170553496e+004	(-4.10011876035298e-002dB,1.72997949823218e+002°)
4.07380277804111e+004	(-4.29126651214012e-002dB,1.72835601593201e+002°)
4.16869383470334e+004	(-4.49134678213624e-002dB,1.72669525073646e+002°)
4.26579518801591e+004	(-4.70077328440222e-002dB,1.72499637185763e+002°)
4.36515832240164e+004	(-4.91997854027158e-002dB,1.72325853179188e+002°)
4.46683592150961e+004	(-5.14941469958148e-002dB,1.72148086611211e+002°)
4.57088189614873e+004	(-5.38955439454835e-002dB,1.71966249326759e+002°)
4.67735141287196e+004	(-5.64089162725805e-002dB,1.71780251439192e+002°)
4.78630092322636e+004	(-5.90394269176935e-002dB,1.71590001312047e+002°)
4.89778819368444e+004	(-6.17924713178110e-002dB,1.71395405541806e+002°)
5.01187233627270e+004	(-6.46736873485545e-002dB,1.71196368941837e+002°)
5.12861383991362e+004	(-6.76889656411660e-002dB,1.70992794527604e+002°)
5.24807460249770e+004	(-7.08444602836904e-002dB,1.70784583503291e+002°)
5.37031796370250e+004	(-7.41465999152340e-002dB,1.70571635249983e+002°)
5.49540873857622e+004	(-7.76020992217211e-002dB,1.70353847315541e+002°)
5.62341325190346e+004	(-8.12179708416613e-002dB,1.70131115406344e+002°)
5.75439937337154e+004	(-8.50015376891390e-002dB,1.69903333381054e+002°)
5.88843655355586e+004	(-8.89604457012483e-002dB,1.69670393246587e+002°)
6.02559586074355e+004	(-9.31026770162041e-002dB,1.69432185156481e+002°)
6.16595001861479e+004	(-9.74365635874151e-002dB,1.69188597411858e+002°)
6.30957344480190e+004	(-1.01970801238149e-001dB,1.68939516465180e+002°)
6.45654229034652e+004	(-1.06714464159984e-001dB,1.68684826927046e+002°)
6.60693448007593e+004	(-1.11677019857196e-001dB,1.68424411576231e+002°)
6.76082975391979e+004	(-1.16868344537804e-001dB,1.68158151373239e+002°)
6.91830970918933e+004	(-1.22298738950277e-001dB,1.67885925477610e+002°)
7.07945784384134e+004	(-1.27978944663444e-001dB,1.67607611269262e+002°)
7.24435960074987e+004	(-1.33920160784750e-001dB,1.67323084374135e+002°)
7.41310241300914e+004	(-1.40134061110403e-001dB,1.67032218694449e+002°)
7.58577575029180e+004	(-1.46632811698000e-001dB,1.66734886443867e+002°)
7.76247116628688e+004	(-1.53429088849996e-001dB,1.66430958187887e+002°)
7.94328234724277e+004	(-1.60536097493408e-001dB,1.66120302889797e+002°)
8.12830516164095e+004	(-1.67967589937919e-001dB,1.65802787962526e+002°)
8.31763771102667e+004	(-1.75737884991252e-001dB,1.65478279326748e+002°)
8.51138038202372e+004	(-1.83861887406878e-001dB,1.65146641475604e+002°)
8.70963589956076e+004	(-1.92355107635270e-001dB,1.64807737546407e+002°)
8.91250938133741e+004	(-2.01233681845443e-001dB,1.64461429399717e+002°)
9.12010839355905e+004	(-2.10514392178979e-001dB,1.64107577706172e+002°)
9.33254300796986e+004	(-2.20214687193727e-001dB,1.63746042041459e+002°)
9.54992586021431e+004	(-2.30352702449086e-001dB,1.63376680989841e+002°)
9.77237220955805e+004	(-2.40947281179168e-001dB,1.62999352256615e+002°)
9.99999999999995e+004	(-2.52017994993993e-001dB,1.62613912789923e+002°)
1.02329299228075e+005	(-2.63585164542815e-001dB,1.62220218912295e+002°)
1.04712854805089e+005	(-2.75669880066760e-001dB,1.61818126462319e+002°)
1.07151930523760e+005	(-2.88294021761125e-001dB,1.61407490946824e+002°)
1.09647819614318e+005	(-3.01480279860441e-001dB,1.60988167703931e+002°)
1.12201845430196e+005	(-3.15252174351683e-001dB,1.60560012077345e+002°)
1.14815362149688e+005	(-3.29634074213362e-001dB,1.60122879602194e+002°)
1.17489755493952e+005	(-3.44651216070257e-001dB,1.59676626202734e+002°)
1.20226443461741e+005	(-3.60329722145041e-001dB,1.59221108402191e+002°)
1.23026877081237e+005	(-3.76696617380281e-001dB,1.58756183544978e+002°)
1.25892541179416e+005	(-3.93779845595416e-001dB,1.58281710031469e+002°)
1.28824955169313e+005	(-4.11608284535312e-001dB,1.57797547565487e+002°)
1.31825673855640e+005	(-4.30211759658881e-001dB,1.57303557414588e+002°)
1.34896288259165e+005	(-4.49621056507785e-001dB,1.56799602683167e+002°)
1.38038426460288e+005	(-4.69867931488159e-001dB,1.56285548598325e+002°)
1.41253754462275e+005	(-4.90985120890706e-001dB,1.55761262808394e+002°)
1.44543977074592e+005	(-5.13006347967888e-001dB,1.55226615693884e+002°)
1.47910838816820e+005	(-5.35966327881163e-001dB,1.54681480690552e+002°)
1.51356124843620e+005	(-5.59900770326039e-001dB,1.54125734624177e+002°)
1.54881661891247e+005	(-5.84846379638922e-001dB,1.53559258056518e+002°)
1.58489319246110e+005	(-6.10840852186745e-001dB,1.52981935641805e+002°)
1.62181009735892e+005	(-6.37922870839289e-001dB,1.52393656492985e+002°)
1.65958690743755e+005	(-6.66132096324441e-001dB,1.51794314556827e+002°)
1.69824365246173e+005	(-6.95509155268610e-001dB,1.51183808996818e+002°)
1.73780082874937e+005	(-7.26095624729015e-001dB,1.50562044582666e+002°)
1.77827941003891e+005	(-7.57934013030832e-001dB,1.49928932085043e+002°)
1.81970085860997e+005	(-7.91067736731224e-001dB,1.49284388674073e+002°)
1.86208713666286e+005	(-8.25541093543880e-001dB,1.48628338319895e+002°)
1.90546071796324e+005	(-8.61399231071934e-001dB,1.47960712193470e+002°)
1.94984459975803e+005	(-8.98688111214753e-001dB,1.47281449065662e+002°)
1.99526231496887e+005	(-9.37454470134319e-001dB,1.46590495702452e+002°)
2.04173794466952e+005	(-9.77745773690887e-001dB,1.45887807254011e+002°)
2.08929613085403e+005	(-1.01961016828422e+000dB,1.45173347635205e+002°)
2.13796208950222e+005	(-1.06309642706738e+000dB,1.44447089895005e+002°)
2.18776162394954e+005	(-1.10825389153304e+000dB,1.43709016572131e+002°)
2.23872113856833e+005	(-1.15513240850919e+000dB,1.42959120034200e+002°)
2.29086765276776e+005	(-1.20378226264067e+000dB,1.42197402797556e+002°)
2.34422881531991e+005	(-1.25425410447486e+000dB,1.41423877824917e+002°)
2.39883291901948e+005	(-1.30659887431510e+000dB,1.40638568797964e+002°)
2.45470891568501e+005	(-1.36086772205161e+000dB,1.39841510361996e+002°)
2.51188643150956e+005	(-1.41711192322802e+000dB,1.39032748339839e+002°)
2.57039578276885e+005	(-1.47538279165098e+000dB,1.38212339912257e+002°)
2.63026799189536e+005	(-1.53573158889963e+000dB,1.37380353762257e+002°)
2.69153480392690e+005	(-1.59820943114079e+000dB,1.36536870180832e+002°)
2.75422870333815e+005	(-1.66286719370411e+000dB,1.35681981131877e+002°)
2.81838293126444e+005	(-1.72975541391676e+000dB,1.34815790274292e+002°)
2.88403150312659e+005	(-1.79892419274130e+000dB,1.33938412939533e+002°)
2.95120922666637e+005	(-1.87042309579881e+000dB,1.33049976063241e+002°)
3.01995172040200e+005	(-1.94430105439478e+000dB,1.32150618069908e+002°)
3.09029543251357e+005	(-2.02060626719415e+000dB,1.31240488709992e+002°)
3.16227766016836e+005	(-2.09938610321462e+000dB,1.30319748849275e+002°)
3.23593656929626e+005	(-2.18068700682266e+000dB,1.29388570210774e+002°)
3.31131121482589e+005	(-2.26455440542417e+000dB,1.28447135069976e+002°)
3.38844156139200e+005	(-2.35103262054059e+000dB,1.27495635904681e+002°)
3.46736850452529e+005	(-2.44016478295038e+000dB,1.26534275001249e+002°)
3.54813389233573e+005	(-2.53199275255615e+000dB,1.25563264019580e+002°)
3.63078054770099e+005	(-2.62655704360777e+000dB,1.24582823519630e+002°)
3.71535229097170e+005	(-2.72389675587197e+000dB,1.23593182452804e+002°)
3.80189396320558e+005	(-2.82404951228972e+000dB,1.22594577622001e+002°)
3.89045144994278e+005	(-2.92705140360407e+000dB,1.21587253114546e+002°)
3.98107170553494e+005	(-3.03293694037330e+000dB,1.20571459712624e+002°)
4.07380277804110e+005	(-3.14173901270905e+000dB,1.19547454286190e+002°)
4.16869383470332e+005	(-3.25348885799603e+000dB,1.18515499173601e+002°)
4.26579518801589e+005	(-3.36821603676135e+000dB,1.17475861555461e+002°)
4.36515832240163e+005	(-3.48594841676790e+000dB,1.16428812827301e+002°)
4.46683592150960e+005	(-3.60671216530901e+000dB,1.15374627976809e+002°)
4.57088189614872e+005	(-3.73053174958297e+000dB,1.14313584971328e+002°)
4.67735141287195e+005	(-3.85742994492627e+000dB,1.13245964161250e+002°)
4.78630092322635e+005	(-3.98742785058646e+000dB,1.12172047704787e+002°)
4.89778819368442e+005	(-4.12054491262000e+000dB,1.11092119019358e+002°)
5.01187233627268e+005	(-4.25679895340939e+000dB,1.10006462264512e+002°)
5.12861383991361e+005	(-4.39620620720857e+000dB,1.08915361860932e+002°)
5.24807460249768e+005	(-4.53878136104770e+000dB,1.07819102049593e+002°)
5.37031796370248e+005	(-4.68453760025847e+000dB,1.06717966494648e+002°)
5.49540873857620e+005	(-4.83348665782184e+000dB,1.05612237933034e+002°)
5.62341325190345e+005	(-4.98563886669031e+000dB,1.04502197873180e+002°)
5.75439937337152e+005	(-5.14100321419917e+000dB,1.03388126344551e+002°)
