Freq.	V(vin)/-I(R1)
1.00000000000000e+004	(6.86291391903708e+001dB,5.87223364878568e-001°)
1.02329299228075e+004	(6.86292226962268e+001dB,6.00890953100778e-001°)
1.04712854805090e+004	(6.86293101346183e+001dB,6.14876142559831e-001°)
1.07151930523761e+004	(6.86294016905934e+001dB,6.29186276990062e-001°)
1.09647819614318e+004	(6.86294975578933e+001dB,6.43828867316505e-001°)
1.12201845430196e+004	(6.86295979393598e+001dB,6.58811595273399e-001°)
1.14815362149688e+004	(6.86297030473611e+001dB,6.74142317087381e-001°)
1.17489755493953e+004	(6.86298131042376e+001dB,6.89829067225394e-001°)
1.20226443461741e+004	(6.86299283427684e+001dB,7.05880062207408e-001°)
1.23026877081238e+004	(6.86300490066591e+001dB,7.22303704483781e-001°)
1.25892541179417e+004	(6.86301753510531e+001dB,7.39108586377138e-001°)
1.28824955169313e+004	(6.86303076430657e+001dB,7.56303494088360e-001°)
1.31825673855641e+004	(6.86304461623431e+001dB,7.73897411766308e-001°)
1.34896288259165e+004	(6.86305912016477e+001dB,7.91899525640555e-001°)
1.38038426460288e+004	(6.86307430674701e+001dB,8.10319228216461e-001°)
1.41253754462275e+004	(6.86309020806692e+001dB,8.29166122531564e-001°)
1.44543977074593e+004	(6.86310685771425e+001dB,8.48450026472163e-001°)
1.47910838816821e+004	(6.86312429085262e+001dB,8.68180977148771e-001°)
1.51356124843621e+004	(6.86314254429287e+001dB,8.88369235328815e-001°)
1.54881661891248e+004	(6.86316165656972e+001dB,9.09025289924810e-001°)
1.58489319246111e+004	(6.86318166802191e+001dB,9.30159862535898e-001°)
1.62181009735893e+004	(6.86320262087614e+001dB,9.51783912040396e-001°)
1.65958690743756e+004	(6.86322455933472e+001dB,9.73908639236703e-001°)
1.69824365246174e+004	(6.86324752966730e+001dB,9.96545491529517e-001°)
1.73780082874937e+004	(6.86327158030679e+001dB,1.01970616765807e+000°)
1.77827941003892e+004	(6.86329676194965e+001dB,1.04340262246258e+000°)
1.81970085860998e+004	(6.86332312766070e+001dB,1.06764707168475e+000°)
1.86208713666287e+004	(6.86335073298280e+001dB,1.09245199679783e+000°)
1.90546071796325e+004	(6.86337963605134e+001dB,1.11783014986095e+000°)
1.94984459975804e+004	(6.86340989771412e+001dB,1.14379455839237e+000°)
1.99526231496888e+004	(6.86344158165646e+001dB,1.17035853025522e+000°)
2.04173794466953e+004	(6.86347475453209e+001dB,1.19753565854922e+000°)
2.08929613085404e+004	(6.86350948609987e+001dB,1.22533982650080e+000°)
2.13796208950223e+004	(6.86354584936663e+001dB,1.25378521234365e+000°)
2.18776162394955e+004	(6.86358392073646e+001dB,1.28288629418080e+000°)
2.23872113856834e+004	(6.86362378016667e+001dB,1.31265785481865e+000°)
2.29086765276777e+004	(6.86366551133065e+001dB,1.34311498656243e+000°)
2.34422881531992e+004	(6.86370920178800e+001dB,1.37427309596185e+000°)
2.39883291901949e+004	(6.86375494316224e+001dB,1.40614790849436e+000°)
2.45470891568503e+004	(6.86380283132630e+001dB,1.43875547317279e+000°)
2.51188643150958e+004	(6.86385296659622e+001dB,1.47211216706285e+000°)
2.57039578276886e+004	(6.86390545393334e+001dB,1.50623469969464e+000°)
2.63026799189538e+004	(6.86396040315538e+001dB,1.54114011735135e+000°)
2.69153480392691e+004	(6.86401792915659e+001dB,1.57684580721668e+000°)
2.75422870333816e+004	(6.86407815213762e+001dB,1.61336950136117e+000°)
2.81838293126445e+004	(6.86414119784517e+001dB,1.65072928054614e+000°)
2.88403150312660e+004	(6.86420719782209e+001dB,1.68894357782216e+000°)
2.95120922666638e+004	(6.86427628966805e+001dB,1.72803118189717e+000°)
3.01995172040201e+004	(6.86434861731139e+001dB,1.76801124024780e+000°)
3.09029543251359e+004	(6.86442433129254e+001dB,1.80890326194480e+000°)
3.16227766016837e+004	(6.86450358905924e+001dB,1.85072712016216e+000°)
3.23593656929628e+004	(6.86458655527426e+001dB,1.89350305433641e+000°)
3.31131121482591e+004	(6.86467340213592e+001dB,1.93725167194087e+000°)
3.38844156139202e+004	(6.86476430971174e+001dB,1.98199394983646e+000°)
3.46736850452531e+004	(6.86485946628596e+001dB,2.02775123515841e+000°)
3.54813389233575e+004	(6.86495906872114e+001dB,2.07454524569493e+000°)
3.63078054770101e+004	(6.86506332283435e+001dB,2.12239806971115e+000°)
3.71535229097172e+004	(6.86517244378856e+001dB,2.17133216516806e+000°)
3.80189396320560e+004	(6.86528665649950e+001dB,2.22137035828301e+000°)
3.89045144994280e+004	(6.86540619605851e+001dB,2.27253584137442e+000°)
3.98107170553496e+004	(6.86553130817203e+001dB,2.32485216992966e+000°)
4.07380277804112e+004	(6.86566224961784e+001dB,2.37834325883090e+000°)
4.16869383470335e+004	(6.86579928871881e+001dB,2.43303337766932e+000°)
4.26579518801592e+004	(6.86594270583446e+001dB,2.48894714507375e+000°)
4.36515832240165e+004	(6.86609279387080e+001dB,2.54610952197480e+000°)
4.46683592150962e+004	(6.86624985880878e+001dB,2.60454580372056e+000°)
4.57088189614874e+004	(6.86641422025187e+001dB,2.66428161095469e+000°)
4.67735141287197e+004	(6.86658621199305e+001dB,2.72534287916212e+000°)
4.78630092322637e+004	(6.86676618260159e+001dB,2.78775584678177e+000°)
4.89778819368445e+004	(6.86695449602984e+001dB,2.85154704177950e+000°)
5.01187233627271e+004	(6.86715153224040e+001dB,2.91674326656836e+000°)
5.12861383991363e+004	(6.86735768785386e+001dB,2.98337158115625e+000°)
5.24807460249771e+004	(6.86757337681719e+001dB,3.05145928439436e+000°)
5.37031796370251e+004	(6.86779903109295e+001dB,3.12103389319259e+000°)
5.49540873857623e+004	(6.86803510136933e+001dB,3.19212311956056e+000°)
5.62341325190347e+004	(6.86828205779103e+001dB,3.26475484532505e+000°)
5.75439937337155e+004	(6.86854039071067e+001dB,3.33895709436716e+000°)
5.88843655355587e+004	(6.86881061146070e+001dB,3.41475800221347e+000°)
6.02559586074356e+004	(6.86909325314531e+001dB,3.49218578280803e+000°)
6.16595001861480e+004	(6.86938887145188e+001dB,3.57126869228264e+000°)
6.30957344480191e+004	(6.86969804548149e+001dB,3.65203498953449e+000°)
6.45654229034654e+004	(6.87002137859747e+001dB,3.73451289341123e+000°)
6.60693448007594e+004	(6.87035949929136e+001dB,3.81873053629474e+000°)
6.76082975391980e+004	(6.87071306206483e+001dB,3.90471591386557e+000°)
6.91830970918934e+004	(6.87108274832653e+001dB,3.99249683082140e+000°)
7.07945784384136e+004	(6.87146926730210e+001dB,4.08210084231371e+000°)
7.24435960074988e+004	(6.87187335695572e+001dB,4.17355519085847e+000°)
7.41310241300915e+004	(6.87229578492090e+001dB,4.26688673846785e+000°)
7.58577575029181e+004	(6.87273734943848e+001dB,4.36212189374220e+000°)
7.76247116628689e+004	(6.87319888029885e+001dB,4.45928653365396e+000°)
7.94328234724279e+004	(6.87368123978562e+001dB,4.55840591974781e+000°)
8.12830516164096e+004	(6.87418532361722e+001dB,4.65950460847568e+000°)
8.31763771102668e+004	(6.87471206188272e+001dB,4.76260635537951e+000°)
8.51138038202373e+004	(6.87526241996768e+001dB,4.86773401283055e+000°)
8.70963589956077e+004	(6.87583739946531e+001dB,4.97490942103114e+000°)
8.91250938133742e+004	(6.87643803906791e+001dB,5.08415329198334e+000°)
9.12010839355906e+004	(6.87706541543275e+001dB,5.19548508612908e+000°)
9.33254300796988e+004	(6.87772064401639e+001dB,5.30892288136901e+000°)
9.54992586021432e+004	(6.87840487987044e+001dB,5.42448323417139e+000°)
9.77237220955807e+004	(6.87911931839147e+001dB,5.54218103248991e+000°)
9.99999999999996e+004	(6.87986519601687e+001dB,5.66202934021931e+000°)
1.02329299228075e+005	(6.88064379085807e+001dB,5.78403923293074e+000°)
1.04712854805090e+005	(6.88145642326144e+001dB,5.90821962464621e+000°)
1.07151930523760e+005	(6.88230445628682e+001dB,6.03457708543189e+000°)
1.09647819614318e+005	(6.88318929609252e+001dB,6.16311564961620e+000°)
1.12201845430196e+005	(6.88411239221522e+001dB,6.29383661446805e+000°)
1.14815362149688e+005	(6.88507523773189e+001dB,6.42673832920721e+000°)
1.17489755493952e+005	(6.88607936929052e+001dB,6.56181597425924e+000°)
1.20226443461741e+005	(6.88712636699524e+001dB,6.69906133071597e+000°)
1.23026877081238e+005	(6.88821785413076e+001dB,6.83846254001638e+000°)
1.25892541179416e+005	(6.88935549671018e+001dB,6.98000385392475e+000°)
1.28824955169313e+005	(6.89054100282928e+001dB,7.12366537495214e+000°)
1.31825673855640e+005	(6.89177612180980e+001dB,7.26942278744470e+000°)
1.34896288259165e+005	(6.89306264311326e+001dB,7.41724707964866e+000°)
1.38038426460288e+005	(6.89440239500622e+001dB,7.56710425715653e+000°)
1.41253754462275e+005	(6.89579724295736e+001dB,7.71895504824339e+000°)
1.44543977074592e+005	(6.89724908774572e+001dB,7.87275460171625e+000°)
1.47910838816820e+005	(6.89875986325972e+001dB,8.02845217802245e+000°)
1.51356124843620e+005	(6.90033153396525e+001dB,8.18599083449719e+000°)
1.54881661891247e+005	(6.90196609202184e+001dB,8.34530710577286e+000°)
1.58489319246111e+005	(6.90366555402504e+001dB,8.50633068052612e+000°)
1.62181009735892e+005	(6.90543195735368e+001dB,8.66898407590070e+000°)
1.65958690743755e+005	(6.90726735610089e+001dB,8.83318231111538e+000°)
1.69824365246174e+005	(6.90917381656820e+001dB,8.99883258194565e+000°)
1.73780082874937e+005	(6.91115341230284e+001dB,9.16583393795463e+000°)
1.77827941003891e+005	(6.91320821865941e+001dB,9.33407696454181e+000°)
1.81970085860998e+005	(6.91534030686848e+001dB,9.50344347207651e+000°)
1.86208713666286e+005	(6.91755173759635e+001dB,9.67380619458384e+000°)
1.90546071796324e+005	(6.91984455398211e+001dB,9.84502850065453e+000°)
1.94984459975804e+005	(6.92222077414069e+001dB,1.00169641194520e+001°)
1.99526231496887e+005	(6.92468238312339e+001dB,1.01894568848888e+001°)
2.04173794466952e+005	(6.92723132433040e+001dB,1.03623405012394e+001°)
2.08929613085403e+005	(6.92986949037365e+001dB,1.05354383336388e+001°)
2.13796208950222e+005	(6.93259871339231e+001dB,1.07085632270908e+001°)
2.18776162394954e+005	(6.93542075482771e+001dB,1.08815173577674e+001°)
2.23872113856833e+005	(6.93833729466956e+001dB,1.10540921205151e+001°)
2.29086765276776e+005	(6.94134992019040e+001dB,1.12260680566038e+001°)
2.34422881531991e+005	(6.94446011419134e+001dB,1.13972148258373e+001°)
2.39883291901948e+005	(6.94766924278800e+001dB,1.15672912272042e+001°)
2.45470891568502e+005	(6.95097854277235e+001dB,1.17360452722663e+001°)
2.51188643150957e+005	(6.95438910859272e+001dB,1.19032143154667e+001°)
2.57039578276885e+005	(6.95790187900152e+001dB,1.20685252454769e+001°)
2.63026799189537e+005	(6.96151762342764e+001dB,1.22316947415946e+001°)
2.69153480392690e+005	(6.96523692813750e+001dB,1.23924295990469e+001°)
2.75422870333815e+005	(6.96906018225692e+001dB,1.25504271268417e+001°)
2.81838293126444e+005	(6.97298756373292e+001dB,1.27053756215441e+001°)
2.88403150312659e+005	(6.97701902532225e+001dB,1.28569549200303e+001°)
2.95120922666637e+005	(6.98115428070088e+001dB,1.30048370338893e+001°)
3.01995172040200e+005	(6.98539279079502e+001dB,1.31486868676991e+001°)
3.09029543251358e+005	(6.98973375044159e+001dB,1.32881630229043e+001°)
3.16227766016836e+005	(6.99417607549136e+001dB,1.34229186884600e+001°)
3.23593656929627e+005	(6.99871839047397e+001dB,1.35526026187918e+001°)
3.31131121482589e+005	(7.00335901694849e+001dB,1.36768601989489e+001°)
3.38844156139201e+005	(7.00809596266713e+001dB,1.37953345961062e+001°)
3.46736850452530e+005	(7.01292691168287e+001dB,1.39076679958010e+001°)
3.54813389233574e+005	(7.01784921553353e+001dB,1.40135029204784e+001°)
3.63078054770099e+005	(7.02285988563606e+001dB,1.41124836270714e+001°)
3.71535229097171e+005	(7.02795558702412e+001dB,1.42042575794591e+001°)
3.80189396320559e+005	(7.03313263356100e+001dB,1.42884769907467e+001°)
3.89045144994279e+005	(7.03838698475672e+001dB,1.43648004293840e+001°)
3.98107170553495e+005	(7.04371424431410e+001dB,1.44328944822103e+001°)
4.07380277804111e+005	(7.04910966052319e+001dB,1.44924354665779e+001°)
4.16869383470333e+005	(7.05456812861591e+001dB,1.45431111827781e+001°)
4.26579518801590e+005	(7.06008419518469e+001dB,1.45846226970787e+001°)
4.36515832240164e+005	(7.06565206475852e+001dB,1.46166861447911e+001°)
4.46683592150961e+005	(7.07126560861817e+001dB,1.46390345419261e+001°)
4.57088189614873e+005	(7.07691837591947e+001dB,1.46514195931807e+001°)
4.67735141287196e+005	(7.08260360717823e+001dB,1.46536134832325e+001°)
4.78630092322636e+005	(7.08831425015471e+001dB,1.46454106376210e+001°)
4.89778819368444e+005	(7.09404297815714e+001dB,1.46266294388637e+001°)
5.01187233627270e+005	(7.09978221076467e+001dB,1.45971138829215e+001°)
5.12861383991362e+005	(7.10552413694926e+001dB,1.45567351606890e+001°)
5.24807460249770e+005	(7.11126074055352e+001dB,1.45053931488627e+001°)
5.37031796370250e+005	(7.11698382805831e+001dB,1.44430177943512e+001°)
5.49540873857621e+005	(7.12268505854853e+001dB,1.43695703763466e+001°)
5.62341325190346e+005	(7.12835597576032e+001dB,1.42850446302957e+001°)
5.75439937337154e+005	(7.13398804206569e+001dB,1.41894677183074e+001°)
5.88843655355586e+005	(7.13957267422383e+001dB,1.40829010310297e+001°)
6.02559586074354e+005	(7.14510128070035e+001dB,1.39654408067344e+001°)
6.16595001861479e+005	(7.15056530032888e+001dB,1.38372185542805e+001°)
6.30957344480189e+005	(7.15595624206215e+001dB,1.36984012677953e+001°)
6.45654229034652e+005	(7.16126572553407e+001dB,1.35491914223254e+001°)
6.60693448007592e+005	(7.16648552212992e+001dB,1.33898267413728e+001°)
6.76082975391978e+005	(7.17160759623977e+001dB,1.32205797291391e+001°)
6.91830970918932e+005	(7.17662414635049e+001dB,1.30417569624529e+001°)
7.07945784384134e+005	(7.18152764561596e+001dB,1.28536981397283e+001°)
7.24435960074986e+005	(7.18631088153269e+001dB,1.26567748868847e+001°)
7.41310241300913e+005	(7.19096699434077e+001dB,1.24513893229114e+001°)
7.58577575029179e+005	(7.19548951376736e+001dB,1.22379723906541e+001°)
7.76247116628687e+005	(7.19987239373340e+001dB,1.20169819613841e+001°)
7.94328234724276e+005	(7.20411004465317e+001dB,1.17889007247378e+001°)
8.12830516164094e+005	(7.20819736297191e+001dB,1.15542338786209e+001°)
8.31763771102666e+005	(7.21212975760826e+001dB,1.13135066365993e+001°)
8.51138038202371e+005	(7.21590317299670e+001dB,1.10672615730796e+001°)
8.70963589956075e+005	(7.21951410845889e+001dB,1.08160558291509e+001°)
8.91250938133740e+005	(7.22295963367307e+001dB,1.05604582042470e+001°)
9.12010839355904e+005	(7.22623740005531e+001dB,1.03010461607418e+001°)
9.33254300796985e+005	(7.22934564791597e+001dB,1.00384027701395e+001°)
9.54992586021430e+005	(7.23228320930708e+001dB,9.77311363063744e+000°)
9.77237220955804e+005	(7.23504950653187e+001dB,9.50576378646668e+000°)
9.99999999999993e+005	(7.23764454634373e+001dB,9.23693467954408e+000°)
1.02329299228075e+006	(7.24006890991842e+001dB,8.96720116357833e+000°)
1.04712854805089e+006	(7.24232373873869e+001dB,8.69712860986904e+000°)
1.07151930523760e+006	(7.24441071658303e+001dB,8.42727013263565e+000°)
1.09647819614318e+006	(7.24633204785995e+001dB,8.15816395984411e+000°)
1.12201845430196e+006	(7.24809043257369e+001dB,7.89033097320574e+000°)
1.14815362149688e+006	(7.24968903824648e+001dB,7.62427243835852e+000°)
1.17489755493952e+006	(7.25113146915568e+001dB,7.36046794327012e+000°)
1.20226443461740e+006	(7.25242173326987e+001dB,7.09937355969489e+000°)
1.23026877081237e+006	(7.25356420728719e+001dB,6.84142023914717e+000°)
1.25892541179416e+006	(7.25456360019053e+001dB,6.58701245139925e+000°)
1.28824955169313e+006	(7.25542491573850e+001dB,6.33652707004949e+000°)
1.31825673855640e+006	(7.25615341430776e+001dB,6.09031250630672e+000°)
1.34896288259164e+006	(7.25675457449303e+001dB,5.84868808887111e+000°)
1.38038426460288e+006	(7.25723405485446e+001dB,5.61194368471756e+000°)
1.41253754462274e+006	(7.25759765618115e+001dB,5.38033955276065e+000°)
1.44543977074592e+006	(7.25785128461286e+001dB,5.15410641984007e+000°)
1.47910838816820e+006	(7.25800091593173e+001dB,4.93344576624880e+000°)
1.51356124843620e+006	(7.25805256130270e+001dB,4.71853030615200e+000°)
1.54881661891247e+006	(7.25801223470559e+001dB,4.50950464672858e+000°)
1.58489319246110e+006	(7.25788592226491e+001dB,4.30648610871011e+000°)
1.62181009735892e+006	(7.25767955364610e+001dB,4.10956569018935e+000°)
1.65958690743755e+006	(7.25739897564982e+001dB,3.91880915510792e+000°)
1.69824365246173e+006	(7.25704992809939e+001dB,3.73425822769104e+000°)
1.73780082874936e+006	(7.25663802208216e+001dB,3.55593187425002e+000°)
1.77827941003891e+006	(7.25616872057227e+001dB,3.38382765419131e+000°)
1.81970085860997e+006	(7.25564732143275e+001dB,3.21792312272174e+000°)
1.86208713666285e+006	(7.25507894276652e+001dB,3.05817726858900e+000°)
1.90546071796323e+006	(7.25446851056204e+001dB,2.90453197120929e+000°)
1.94984459975803e+006	(7.25382074855723e+001dB,2.75691346267648e+000°)
1.99526231496887e+006	(7.25314017022753e+001dB,2.61523378138517e+000°)
2.04173794466951e+006	(7.25243107278813e+001dB,2.47939220530267e+000°)
2.08929613085402e+006	(7.25169753308881e+001dB,2.34927665426287e+000°)
2.13796208950222e+006	(7.25094340527028e+001dB,2.22476505200185e+000°)
2.18776162394954e+006	(7.25017232004437e+001dB,2.10572663998753e+000°)
2.23872113856832e+006	(7.24938768545668e+001dB,1.99202323639384e+000°)
2.29086765276776e+006	(7.24859268898832e+001dB,1.88351043481615e+000°)
2.34422881531990e+006	(7.24779030085416e+001dB,1.78003873850594e+000°)
2.39883291901947e+006	(7.24698327835683e+001dB,1.68145462700755e+000°)
2.45470891568501e+006	(7.24617417115961e+001dB,1.58760155310037e+000°)
2.51188643150956e+006	(7.24536532734661e+001dB,1.49832086888106e+000°)
2.57039578276884e+006	(7.24455890014441e+001dB,1.41345268065865e+000°)
2.63026799189536e+006	(7.24375685518661e+001dB,1.33283663307991e+000°)
2.69153480392689e+006	(7.24296097821015e+001dB,1.25631262355446e+000°)
2.75422870333814e+006	(7.24217288308044e+001dB,1.18372144861007e+000°)
2.81838293126443e+006	(7.24139402005050e+001dB,1.11490538428299e+000°)
2.88403150312658e+006	(7.24062568416796e+001dB,1.04970870303997e+000°)
2.95120922666636e+006	(7.23986902375183e+001dB,9.87978130043289e-001°)
3.01995172040199e+006	(7.23912504886956e+001dB,9.29563241813370e-001°)
3.09029543251357e+006	(7.23839463975273e+001dB,8.74316810521896e-001°)
3.16227766016835e+006	(7.23767855509742e+001dB,8.22095097267666e-001°)
3.23593656929626e+006	(7.23697744020284e+001dB,7.72758097754351e-001°)
3.31131121482588e+006	(7.23629183490841e+001dB,7.26169743810115e-001°)
3.38844156139200e+006	(7.23562218129632e+001dB,6.82198064169711e-001°)
3.46736850452529e+006	(7.23496883113226e+001dB,6.40715307885996e-001°)
3.54813389233573e+006	(7.23433205302274e+001dB,6.01598033655360e-001°)
3.63078054770098e+006	(7.23371203927233e+001dB,5.64727168235209e-001°)
3.71535229097170e+006	(7.23310891242867e+001dB,5.29988037006395e-001°)
3.80189396320558e+006	(7.23252273150733e+001dB,4.97270369593175e-001°)
3.89045144994277e+006	(7.23195349789193e+001dB,4.66468283302151e-001°)
3.98107170553494e+006	(7.23140116090835e+001dB,4.37480246982765e-001°)
4.07380277804109e+006	(7.23086562307456e+001dB,4.10209027748484e-001°)
4.16869383470332e+006	(7.23034674502986e+001dB,3.84561622832322e-001°)
4.26579518801589e+006	(7.22984435014955e+001dB,3.60449178685079e-001°)
4.36515832240162e+006	(7.22935822885254e+001dB,3.37786899261468e-001°)
4.46683592150959e+006	(7.22888814261108e+001dB,3.16493945279721e-001°)
4.57088189614871e+006	(7.22843382767247e+001dB,2.96493326085664e-001°)
4.67735141287194e+006	(7.22799499850407e+001dB,2.77711785603463e-001°)
4.78630092322634e+006	(7.22757135097309e+001dB,2.60079683713246e-001°)
4.89778819368442e+006	(7.22716256527334e+001dB,2.43530874260996e-001°)
5.01187233627268e+006	(7.22676830861146e+001dB,2.28002580778977e-001°)
5.12861383991360e+006	(7.22638823766514e+001dB,2.13435270875672e-001°)
5.24807460249768e+006	(7.22602200082588e+001dB,1.99772530142908e-001°)
5.37031796370248e+006	(7.22566924023900e+001dB,1.86960936324462e-001°)
5.49540873857620e+006	(7.22532959365300e+001dB,1.74949934394904e-001°)
5.62341325190344e+006	(7.22500269609048e+001dB,1.63691713109553e-001°)
5.75439937337152e+006	(7.22468818135235e+001dB,1.53141083505890e-001°)
5.88843655355584e+006	(7.22438568336654e+001dB,1.43255359763389e-001°)
6.02559586074352e+006	(7.22409483739242e+001dB,1.33994242762071e-001°)
6.16595001861477e+006	(7.22381528109115e+001dB,1.25319706619857e-001°)
6.30957344480187e+006	(7.22354665547223e+001dB,1.17195888434588e-001°)
